
**** 03/18/22 20:36:36 ******* PSpice Lite (March 2016) ******* ID# 10813 ****

 ** Profile: "SCHEMATIC1-tbg"  [ D:\Practicas\E_General\Termometro_Final-PSpiceFiles\SCHEMATIC1\tbg.sim ] 


 ****     CIRCUIT DESCRIPTION


******************************************************************************




** Creating circuit file "tbg.cir" 
** WARNING: THIS AUTOMATICALLY GENERATED FILE MAY BE OVERWRITTEN BY SUBSEQUENT SIMULATIONS

*Libraries: 
* Profile Libraries :
* Local Libraries :
* From [PSPICE NETLIST] section of C:\SPB_DATA\cdssetup\OrCAD_PSpice\17.2.0\PSpice.ini file:
.lib "nomd.lib" 

*Analysis directives: 
.TRAN  0 1000ns 0 
.STEP LIN TEMP -70 30 0.1 
.OPTIONS ADVCONV
.PROBE64 V(alias(*)) I(alias(*)) W(alias(*)) D(alias(*)) NOISE(alias(*)) 
.INC "..\SCHEMATIC1.net" 



**** INCLUDING SCHEMATIC1.net ****
* source TERMOMETRO_FINAL
V_V2         VS- 0 5
R_R1         N05022 VC+  180K TC=0,0 
V_V1         VC+ 0 5
X_D1         0 N05026 LM385 
R_R2         N05026 N05022  8.2K TC=0,0 

**** RESUMING tbg.cir ****
.END

**** 03/18/22 20:36:36 ******* PSpice Lite (March 2016) ******* ID# 10813 ****

 ** Profile: "SCHEMATIC1-tbg"  [ D:\Practicas\E_General\Termometro_Final-PSpiceFiles\SCHEMATIC1\tbg.sim ] 


 ****     Diode MODEL PARAMETERS


******************************************************************************




               X_D1.DF         
          IS   39.120000E-15 
           N     .9983       
          RS   12.18         


**** 03/18/22 20:36:36 ******* PSpice Lite (March 2016) ******* ID# 10813 ****

 ** Profile: "SCHEMATIC1-tbg"  [ D:\Practicas\E_General\Termometro_Final-PSpiceFiles\SCHEMATIC1\tbg.sim ] 


 ****     INITIAL TRANSIENT SOLUTION       TEMPERATURE =  -70.000 DEG C


******************************************************************************



 NODE   VOLTAGE     NODE   VOLTAGE     NODE   VOLTAGE     NODE   VOLTAGE


(  VC+)    5.0000  (  VS-)    5.0000  (N05022)    1.3949 (N05026)    1.2306     

(X_D1.1) 1.601E-06 (X_D1.2)    -.0022 (X_D1.3)    1.2328 




    VOLTAGE SOURCE CURRENTS
    NAME         CURRENT

    V_V2         0.000E+00
    V_V1        -2.003E-05

    TOTAL POWER DISSIPATION   1.00E-04  WATTS


**** 03/18/22 20:36:36 ******* PSpice Lite (March 2016) ******* ID# 10813 ****

 ** Profile: "SCHEMATIC1-tbg"  [ D:\Practicas\E_General\Termometro_Final-PSpiceFiles\SCHEMATIC1\tbg.sim ] 


 ****     INITIAL TRANSIENT SOLUTION       TEMPERATURE =  -69.900 DEG C


******************************************************************************



 NODE   VOLTAGE     NODE   VOLTAGE     NODE   VOLTAGE     NODE   VOLTAGE


(  VC+)    5.0000  (  VS-)    5.0000  (N05022)    1.3949 (N05026)    1.2306     

(X_D1.1) 1.601E-06 (X_D1.2)    -.0022 (X_D1.3)    1.2328 




    VOLTAGE SOURCE CURRENTS
    NAME         CURRENT

    V_V2         0.000E+00
    V_V1        -2.003E-05

    TOTAL POWER DISSIPATION   1.00E-04  WATTS


**** 03/18/22 20:36:36 ******* PSpice Lite (March 2016) ******* ID# 10813 ****

 ** Profile: "SCHEMATIC1-tbg"  [ D:\Practicas\E_General\Termometro_Final-PSpiceFiles\SCHEMATIC1\tbg.sim ] 


 ****     INITIAL TRANSIENT SOLUTION       TEMPERATURE =  -69.800 DEG C


******************************************************************************



 NODE   VOLTAGE     NODE   VOLTAGE     NODE   VOLTAGE     NODE   VOLTAGE


(  VC+)    5.0000  (  VS-)    5.0000  (N05022)    1.3949 (N05026)    1.2307     

(X_D1.1) 1.601E-06 (X_D1.2)    -.0022 (X_D1.3)    1.2328 




    VOLTAGE SOURCE CURRENTS
    NAME         CURRENT

    V_V2         0.000E+00
    V_V1        -2.003E-05

    TOTAL POWER DISSIPATION   1.00E-04  WATTS


**** 03/18/22 20:36:36 ******* PSpice Lite (March 2016) ******* ID# 10813 ****

 ** Profile: "SCHEMATIC1-tbg"  [ D:\Practicas\E_General\Termometro_Final-PSpiceFiles\SCHEMATIC1\tbg.sim ] 


 ****     INITIAL TRANSIENT SOLUTION       TEMPERATURE =  -69.700 DEG C


******************************************************************************



 NODE   VOLTAGE     NODE   VOLTAGE     NODE   VOLTAGE     NODE   VOLTAGE


(  VC+)    5.0000  (  VS-)    5.0000  (N05022)    1.3949 (N05026)    1.2307     

(X_D1.1) 1.601E-06 (X_D1.2)    -.0022 (X_D1.3)    1.2329 




    VOLTAGE SOURCE CURRENTS
    NAME         CURRENT

    V_V2         0.000E+00
    V_V1        -2.003E-05

    TOTAL POWER DISSIPATION   1.00E-04  WATTS


**** 03/18/22 20:36:36 ******* PSpice Lite (March 2016) ******* ID# 10813 ****

 ** Profile: "SCHEMATIC1-tbg"  [ D:\Practicas\E_General\Termometro_Final-PSpiceFiles\SCHEMATIC1\tbg.sim ] 


 ****     INITIAL TRANSIENT SOLUTION       TEMPERATURE =  -69.600 DEG C


******************************************************************************



 NODE   VOLTAGE     NODE   VOLTAGE     NODE   VOLTAGE     NODE   VOLTAGE


(  VC+)    5.0000  (  VS-)    5.0000  (N05022)    1.3949 (N05026)    1.2307     

(X_D1.1) 1.601E-06 (X_D1.2)    -.0022 (X_D1.3)    1.2329 




    VOLTAGE SOURCE CURRENTS
    NAME         CURRENT

    V_V2         0.000E+00
    V_V1        -2.003E-05

    TOTAL POWER DISSIPATION   1.00E-04  WATTS


**** 03/18/22 20:36:36 ******* PSpice Lite (March 2016) ******* ID# 10813 ****

 ** Profile: "SCHEMATIC1-tbg"  [ D:\Practicas\E_General\Termometro_Final-PSpiceFiles\SCHEMATIC1\tbg.sim ] 


 ****     INITIAL TRANSIENT SOLUTION       TEMPERATURE =  -69.500 DEG C


******************************************************************************



 NODE   VOLTAGE     NODE   VOLTAGE     NODE   VOLTAGE     NODE   VOLTAGE


(  VC+)    5.0000  (  VS-)    5.0000  (N05022)    1.3949 (N05026)    1.2307     

(X_D1.1) 1.601E-06 (X_D1.2)    -.0022 (X_D1.3)    1.2329 




    VOLTAGE SOURCE CURRENTS
    NAME         CURRENT

    V_V2         0.000E+00
    V_V1        -2.003E-05

    TOTAL POWER DISSIPATION   1.00E-04  WATTS


**** 03/18/22 20:36:36 ******* PSpice Lite (March 2016) ******* ID# 10813 ****

 ** Profile: "SCHEMATIC1-tbg"  [ D:\Practicas\E_General\Termometro_Final-PSpiceFiles\SCHEMATIC1\tbg.sim ] 


 ****     INITIAL TRANSIENT SOLUTION       TEMPERATURE =  -69.400 DEG C


******************************************************************************



 NODE   VOLTAGE     NODE   VOLTAGE     NODE   VOLTAGE     NODE   VOLTAGE


(  VC+)    5.0000  (  VS-)    5.0000  (N05022)    1.3949 (N05026)    1.2307     

(X_D1.1) 1.601E-06 (X_D1.2)    -.0022 (X_D1.3)    1.2329 




    VOLTAGE SOURCE CURRENTS
    NAME         CURRENT

    V_V2         0.000E+00
    V_V1        -2.003E-05

    TOTAL POWER DISSIPATION   1.00E-04  WATTS


**** 03/18/22 20:36:36 ******* PSpice Lite (March 2016) ******* ID# 10813 ****

 ** Profile: "SCHEMATIC1-tbg"  [ D:\Practicas\E_General\Termometro_Final-PSpiceFiles\SCHEMATIC1\tbg.sim ] 


 ****     INITIAL TRANSIENT SOLUTION       TEMPERATURE =  -69.300 DEG C


******************************************************************************



 NODE   VOLTAGE     NODE   VOLTAGE     NODE   VOLTAGE     NODE   VOLTAGE


(  VC+)    5.0000  (  VS-)    5.0000  (N05022)    1.3949 (N05026)    1.2307     

(X_D1.1) 1.601E-06 (X_D1.2)    -.0022 (X_D1.3)    1.2329 




    VOLTAGE SOURCE CURRENTS
    NAME         CURRENT

    V_V2         0.000E+00
    V_V1        -2.003E-05

    TOTAL POWER DISSIPATION   1.00E-04  WATTS


**** 03/18/22 20:36:36 ******* PSpice Lite (March 2016) ******* ID# 10813 ****

 ** Profile: "SCHEMATIC1-tbg"  [ D:\Practicas\E_General\Termometro_Final-PSpiceFiles\SCHEMATIC1\tbg.sim ] 


 ****     INITIAL TRANSIENT SOLUTION       TEMPERATURE =  -69.200 DEG C


******************************************************************************



 NODE   VOLTAGE     NODE   VOLTAGE     NODE   VOLTAGE     NODE   VOLTAGE


(  VC+)    5.0000  (  VS-)    5.0000  (N05022)    1.3949 (N05026)    1.2307     

(X_D1.1) 1.601E-06 (X_D1.2)    -.0022 (X_D1.3)    1.2329 




    VOLTAGE SOURCE CURRENTS
    NAME         CURRENT

    V_V2         0.000E+00
    V_V1        -2.003E-05

    TOTAL POWER DISSIPATION   1.00E-04  WATTS


**** 03/18/22 20:36:36 ******* PSpice Lite (March 2016) ******* ID# 10813 ****

 ** Profile: "SCHEMATIC1-tbg"  [ D:\Practicas\E_General\Termometro_Final-PSpiceFiles\SCHEMATIC1\tbg.sim ] 


 ****     INITIAL TRANSIENT SOLUTION       TEMPERATURE =  -69.100 DEG C


******************************************************************************



 NODE   VOLTAGE     NODE   VOLTAGE     NODE   VOLTAGE     NODE   VOLTAGE


(  VC+)    5.0000  (  VS-)    5.0000  (N05022)    1.3949 (N05026)    1.2307     

(X_D1.1) 1.601E-06 (X_D1.2)    -.0022 (X_D1.3)    1.2329 




    VOLTAGE SOURCE CURRENTS
    NAME         CURRENT

    V_V2         0.000E+00
    V_V1        -2.003E-05

    TOTAL POWER DISSIPATION   1.00E-04  WATTS


**** 03/18/22 20:36:36 ******* PSpice Lite (March 2016) ******* ID# 10813 ****

 ** Profile: "SCHEMATIC1-tbg"  [ D:\Practicas\E_General\Termometro_Final-PSpiceFiles\SCHEMATIC1\tbg.sim ] 


 ****     INITIAL TRANSIENT SOLUTION       TEMPERATURE =  -69.000 DEG C


******************************************************************************



 NODE   VOLTAGE     NODE   VOLTAGE     NODE   VOLTAGE     NODE   VOLTAGE


(  VC+)    5.0000  (  VS-)    5.0000  (N05022)    1.3950 (N05026)    1.2307     

(X_D1.1) 1.601E-06 (X_D1.2)    -.0022 (X_D1.3)    1.2329 




    VOLTAGE SOURCE CURRENTS
    NAME         CURRENT

    V_V2         0.000E+00
    V_V1        -2.003E-05

    TOTAL POWER DISSIPATION   1.00E-04  WATTS


**** 03/18/22 20:36:36 ******* PSpice Lite (March 2016) ******* ID# 10813 ****

 ** Profile: "SCHEMATIC1-tbg"  [ D:\Practicas\E_General\Termometro_Final-PSpiceFiles\SCHEMATIC1\tbg.sim ] 


 ****     INITIAL TRANSIENT SOLUTION       TEMPERATURE =  -68.900 DEG C


******************************************************************************



 NODE   VOLTAGE     NODE   VOLTAGE     NODE   VOLTAGE     NODE   VOLTAGE


(  VC+)    5.0000  (  VS-)    5.0000  (N05022)    1.3950 (N05026)    1.2307     

(X_D1.1) 1.601E-06 (X_D1.2)    -.0022 (X_D1.3)    1.2329 




    VOLTAGE SOURCE CURRENTS
    NAME         CURRENT

    V_V2         0.000E+00
    V_V1        -2.003E-05

    TOTAL POWER DISSIPATION   1.00E-04  WATTS


**** 03/18/22 20:36:36 ******* PSpice Lite (March 2016) ******* ID# 10813 ****

 ** Profile: "SCHEMATIC1-tbg"  [ D:\Practicas\E_General\Termometro_Final-PSpiceFiles\SCHEMATIC1\tbg.sim ] 


 ****     INITIAL TRANSIENT SOLUTION       TEMPERATURE =  -68.800 DEG C


******************************************************************************



 NODE   VOLTAGE     NODE   VOLTAGE     NODE   VOLTAGE     NODE   VOLTAGE


(  VC+)    5.0000  (  VS-)    5.0000  (N05022)    1.3950 (N05026)    1.2307     

(X_D1.1) 1.601E-06 (X_D1.2)    -.0022 (X_D1.3)    1.2329 




    VOLTAGE SOURCE CURRENTS
    NAME         CURRENT

    V_V2         0.000E+00
    V_V1        -2.003E-05

    TOTAL POWER DISSIPATION   1.00E-04  WATTS


**** 03/18/22 20:36:36 ******* PSpice Lite (March 2016) ******* ID# 10813 ****

 ** Profile: "SCHEMATIC1-tbg"  [ D:\Practicas\E_General\Termometro_Final-PSpiceFiles\SCHEMATIC1\tbg.sim ] 


 ****     INITIAL TRANSIENT SOLUTION       TEMPERATURE =  -68.700 DEG C


******************************************************************************



 NODE   VOLTAGE     NODE   VOLTAGE     NODE   VOLTAGE     NODE   VOLTAGE


(  VC+)    5.0000  (  VS-)    5.0000  (N05022)    1.3950 (N05026)    1.2307     

(X_D1.1) 1.601E-06 (X_D1.2)    -.0022 (X_D1.3)    1.2329 




    VOLTAGE SOURCE CURRENTS
    NAME         CURRENT

    V_V2         0.000E+00
    V_V1        -2.003E-05

    TOTAL POWER DISSIPATION   1.00E-04  WATTS


**** 03/18/22 20:36:36 ******* PSpice Lite (March 2016) ******* ID# 10813 ****

 ** Profile: "SCHEMATIC1-tbg"  [ D:\Practicas\E_General\Termometro_Final-PSpiceFiles\SCHEMATIC1\tbg.sim ] 


 ****     INITIAL TRANSIENT SOLUTION       TEMPERATURE =  -68.600 DEG C


******************************************************************************



 NODE   VOLTAGE     NODE   VOLTAGE     NODE   VOLTAGE     NODE   VOLTAGE


(  VC+)    5.0000  (  VS-)    5.0000  (N05022)    1.3950 (N05026)    1.2308     

(X_D1.1) 1.601E-06 (X_D1.2)    -.0022 (X_D1.3)    1.2329 




    VOLTAGE SOURCE CURRENTS
    NAME         CURRENT

    V_V2         0.000E+00
    V_V1        -2.003E-05

    TOTAL POWER DISSIPATION   1.00E-04  WATTS


**** 03/18/22 20:36:36 ******* PSpice Lite (March 2016) ******* ID# 10813 ****

 ** Profile: "SCHEMATIC1-tbg"  [ D:\Practicas\E_General\Termometro_Final-PSpiceFiles\SCHEMATIC1\tbg.sim ] 


 ****     INITIAL TRANSIENT SOLUTION       TEMPERATURE =  -68.500 DEG C


******************************************************************************



 NODE   VOLTAGE     NODE   VOLTAGE     NODE   VOLTAGE     NODE   VOLTAGE


(  VC+)    5.0000  (  VS-)    5.0000  (N05022)    1.3950 (N05026)    1.2308     

(X_D1.1) 1.601E-06 (X_D1.2)    -.0022 (X_D1.3)    1.2330 




    VOLTAGE SOURCE CURRENTS
    NAME         CURRENT

    V_V2         0.000E+00
    V_V1        -2.003E-05

    TOTAL POWER DISSIPATION   1.00E-04  WATTS


**** 03/18/22 20:36:36 ******* PSpice Lite (March 2016) ******* ID# 10813 ****

 ** Profile: "SCHEMATIC1-tbg"  [ D:\Practicas\E_General\Termometro_Final-PSpiceFiles\SCHEMATIC1\tbg.sim ] 


 ****     INITIAL TRANSIENT SOLUTION       TEMPERATURE =  -68.400 DEG C


******************************************************************************



 NODE   VOLTAGE     NODE   VOLTAGE     NODE   VOLTAGE     NODE   VOLTAGE


(  VC+)    5.0000  (  VS-)    5.0000  (N05022)    1.3950 (N05026)    1.2308     

(X_D1.1) 1.601E-06 (X_D1.2)    -.0022 (X_D1.3)    1.2330 




    VOLTAGE SOURCE CURRENTS
    NAME         CURRENT

    V_V2         0.000E+00
    V_V1        -2.003E-05

    TOTAL POWER DISSIPATION   1.00E-04  WATTS


**** 03/18/22 20:36:36 ******* PSpice Lite (March 2016) ******* ID# 10813 ****

 ** Profile: "SCHEMATIC1-tbg"  [ D:\Practicas\E_General\Termometro_Final-PSpiceFiles\SCHEMATIC1\tbg.sim ] 


 ****     INITIAL TRANSIENT SOLUTION       TEMPERATURE =  -68.300 DEG C


******************************************************************************



 NODE   VOLTAGE     NODE   VOLTAGE     NODE   VOLTAGE     NODE   VOLTAGE


(  VC+)    5.0000  (  VS-)    5.0000  (N05022)    1.3950 (N05026)    1.2308     

(X_D1.1) 1.601E-06 (X_D1.2)    -.0022 (X_D1.3)    1.2330 




    VOLTAGE SOURCE CURRENTS
    NAME         CURRENT

    V_V2         0.000E+00
    V_V1        -2.003E-05

    TOTAL POWER DISSIPATION   1.00E-04  WATTS


**** 03/18/22 20:36:36 ******* PSpice Lite (March 2016) ******* ID# 10813 ****

 ** Profile: "SCHEMATIC1-tbg"  [ D:\Practicas\E_General\Termometro_Final-PSpiceFiles\SCHEMATIC1\tbg.sim ] 


 ****     INITIAL TRANSIENT SOLUTION       TEMPERATURE =  -68.200 DEG C


******************************************************************************



 NODE   VOLTAGE     NODE   VOLTAGE     NODE   VOLTAGE     NODE   VOLTAGE


(  VC+)    5.0000  (  VS-)    5.0000  (N05022)    1.3950 (N05026)    1.2308     

(X_D1.1) 1.601E-06 (X_D1.2)    -.0022 (X_D1.3)    1.2330 




    VOLTAGE SOURCE CURRENTS
    NAME         CURRENT

    V_V2         0.000E+00
    V_V1        -2.003E-05

    TOTAL POWER DISSIPATION   1.00E-04  WATTS


**** 03/18/22 20:36:36 ******* PSpice Lite (March 2016) ******* ID# 10813 ****

 ** Profile: "SCHEMATIC1-tbg"  [ D:\Practicas\E_General\Termometro_Final-PSpiceFiles\SCHEMATIC1\tbg.sim ] 


 ****     INITIAL TRANSIENT SOLUTION       TEMPERATURE =  -68.100 DEG C


******************************************************************************



 NODE   VOLTAGE     NODE   VOLTAGE     NODE   VOLTAGE     NODE   VOLTAGE


(  VC+)    5.0000  (  VS-)    5.0000  (N05022)    1.3950 (N05026)    1.2308     

(X_D1.1) 1.601E-06 (X_D1.2)    -.0022 (X_D1.3)    1.2330 




    VOLTAGE SOURCE CURRENTS
    NAME         CURRENT

    V_V2         0.000E+00
    V_V1        -2.003E-05

    TOTAL POWER DISSIPATION   1.00E-04  WATTS


**** 03/18/22 20:36:36 ******* PSpice Lite (March 2016) ******* ID# 10813 ****

 ** Profile: "SCHEMATIC1-tbg"  [ D:\Practicas\E_General\Termometro_Final-PSpiceFiles\SCHEMATIC1\tbg.sim ] 


 ****     INITIAL TRANSIENT SOLUTION       TEMPERATURE =  -68.000 DEG C


******************************************************************************



 NODE   VOLTAGE     NODE   VOLTAGE     NODE   VOLTAGE     NODE   VOLTAGE


(  VC+)    5.0000  (  VS-)    5.0000  (N05022)    1.3950 (N05026)    1.2308     

(X_D1.1) 1.601E-06 (X_D1.2)    -.0022 (X_D1.3)    1.2330 




    VOLTAGE SOURCE CURRENTS
    NAME         CURRENT

    V_V2         0.000E+00
    V_V1        -2.003E-05

    TOTAL POWER DISSIPATION   1.00E-04  WATTS


**** 03/18/22 20:36:36 ******* PSpice Lite (March 2016) ******* ID# 10813 ****

 ** Profile: "SCHEMATIC1-tbg"  [ D:\Practicas\E_General\Termometro_Final-PSpiceFiles\SCHEMATIC1\tbg.sim ] 


 ****     INITIAL TRANSIENT SOLUTION       TEMPERATURE =  -67.900 DEG C


******************************************************************************



 NODE   VOLTAGE     NODE   VOLTAGE     NODE   VOLTAGE     NODE   VOLTAGE


(  VC+)    5.0000  (  VS-)    5.0000  (N05022)    1.3950 (N05026)    1.2308     

(X_D1.1) 1.601E-06 (X_D1.2)    -.0022 (X_D1.3)    1.2330 




    VOLTAGE SOURCE CURRENTS
    NAME         CURRENT

    V_V2         0.000E+00
    V_V1        -2.003E-05

    TOTAL POWER DISSIPATION   1.00E-04  WATTS


**** 03/18/22 20:36:36 ******* PSpice Lite (March 2016) ******* ID# 10813 ****

 ** Profile: "SCHEMATIC1-tbg"  [ D:\Practicas\E_General\Termometro_Final-PSpiceFiles\SCHEMATIC1\tbg.sim ] 


 ****     INITIAL TRANSIENT SOLUTION       TEMPERATURE =  -67.800 DEG C


******************************************************************************



 NODE   VOLTAGE     NODE   VOLTAGE     NODE   VOLTAGE     NODE   VOLTAGE


(  VC+)    5.0000  (  VS-)    5.0000  (N05022)    1.3950 (N05026)    1.2308     

(X_D1.1) 1.601E-06 (X_D1.2)    -.0022 (X_D1.3)    1.2330 




    VOLTAGE SOURCE CURRENTS
    NAME         CURRENT

    V_V2         0.000E+00
    V_V1        -2.003E-05

    TOTAL POWER DISSIPATION   1.00E-04  WATTS


**** 03/18/22 20:36:36 ******* PSpice Lite (March 2016) ******* ID# 10813 ****

 ** Profile: "SCHEMATIC1-tbg"  [ D:\Practicas\E_General\Termometro_Final-PSpiceFiles\SCHEMATIC1\tbg.sim ] 


 ****     INITIAL TRANSIENT SOLUTION       TEMPERATURE =  -67.700 DEG C


******************************************************************************



 NODE   VOLTAGE     NODE   VOLTAGE     NODE   VOLTAGE     NODE   VOLTAGE


(  VC+)    5.0000  (  VS-)    5.0000  (N05022)    1.3951 (N05026)    1.2308     

(X_D1.1) 1.601E-06 (X_D1.2)    -.0022 (X_D1.3)    1.2330 




    VOLTAGE SOURCE CURRENTS
    NAME         CURRENT

    V_V2         0.000E+00
    V_V1        -2.003E-05

    TOTAL POWER DISSIPATION   1.00E-04  WATTS


**** 03/18/22 20:36:36 ******* PSpice Lite (March 2016) ******* ID# 10813 ****

 ** Profile: "SCHEMATIC1-tbg"  [ D:\Practicas\E_General\Termometro_Final-PSpiceFiles\SCHEMATIC1\tbg.sim ] 


 ****     INITIAL TRANSIENT SOLUTION       TEMPERATURE =  -67.600 DEG C


******************************************************************************



 NODE   VOLTAGE     NODE   VOLTAGE     NODE   VOLTAGE     NODE   VOLTAGE


(  VC+)    5.0000  (  VS-)    5.0000  (N05022)    1.3951 (N05026)    1.2308     

(X_D1.1) 1.601E-06 (X_D1.2)    -.0022 (X_D1.3)    1.2330 




    VOLTAGE SOURCE CURRENTS
    NAME         CURRENT

    V_V2         0.000E+00
    V_V1        -2.003E-05

    TOTAL POWER DISSIPATION   1.00E-04  WATTS


**** 03/18/22 20:36:36 ******* PSpice Lite (March 2016) ******* ID# 10813 ****

 ** Profile: "SCHEMATIC1-tbg"  [ D:\Practicas\E_General\Termometro_Final-PSpiceFiles\SCHEMATIC1\tbg.sim ] 


 ****     INITIAL TRANSIENT SOLUTION       TEMPERATURE =  -67.500 DEG C


******************************************************************************



 NODE   VOLTAGE     NODE   VOLTAGE     NODE   VOLTAGE     NODE   VOLTAGE


