
**** 03/18/22 18:54:05 ******* PSpice Lite (March 2016) ******* ID# 10813 ****

 ** Profile: "SCHEMATIC1-bpt3_2"  [ D:\Practicas\E_General\Termometro_4-PSpiceFiles\SCHEMATIC1\bpt3_2.sim ] 


 ****     CIRCUIT DESCRIPTION


******************************************************************************




** Creating circuit file "bpt3_2.cir" 
** WARNING: THIS AUTOMATICALLY GENERATED FILE MAY BE OVERWRITTEN BY SUBSEQUENT SIMULATIONS

*Libraries: 
* Profile Libraries :
* Local Libraries :
* From [PSPICE NETLIST] section of C:\SPB_DATA\cdssetup\OrCAD_PSpice\17.2.0\PSpice.ini file:
.lib "nomd.lib" 

*Analysis directives: 
.OP
.TEMP -70
.OPTIONS ADVCONV
.PROBE64 V(alias(*)) I(alias(*)) W(alias(*)) D(alias(*)) NOISE(alias(*)) 
.INC "..\SCHEMATIC1.net" 



**** INCLUDING SCHEMATIC1.net ****
* source TERMOMETRO_4
X_D1         0 N00067 LM385 
R_R1         N00067 VCC  116564 TC=0,0 
X_U1A         N00067 N00238 VCC VSS N00231 LM358
D_D2         0 N00238 D1N4148 
D_D3         N00349 N00067 D1N4148 
R_R2         N00238 N00231  1k TC=0,0 
Q_Q1         N00349 N00335 N00342 Q2N3904
Q_Q2         0 N00342 N00335 Q2N3904
R_R3         N00335 N00067  1k TC=0,0 
R_R4         0 N00342  1.4M TC=0,0 
R_R5         N00067 N00931  1k TC=0,0 
X_U1B         N00231 N00931 VCC VSS N00984 LM358
V_V1         VCC 0 5
V_V2         0 VSS 5

**** RESUMING bpt3_2.cir ****
.END

**** 03/18/22 18:54:05 ******* PSpice Lite (March 2016) ******* ID# 10813 ****

 ** Profile: "SCHEMATIC1-bpt3_2"  [ D:\Practicas\E_General\Termometro_4-PSpiceFiles\SCHEMATIC1\bpt3_2.sim ] 


 ****     Diode MODEL PARAMETERS


******************************************************************************




               D1N4148         X_D1.DF         
          IS    2.682000E-09   39.120000E-15 
           N    1.836            .9983       
         ISR    1.565000E-09                 
         IKF     .04417                      
          BV  100                            
         IBV  100.000000E-06                 
          RS     .5664         12.18         
          TT   11.540000E-09                 
         CJO    4.000000E-12                 
          VJ     .5                          
           M     .3333                       


               X_U1A.x_lm358.dx 
          IS  800.000000E-18 
          RS    1            


               X_U1A.x_lm358.dy 
          IS  800.000000E-18 
          RS    1.000000E-03 
         CJO   10.000000E-12 


               X_U1B.x_lm358.dx 
          IS  800.000000E-18 
          RS    1            


               X_U1B.x_lm358.dy 
          IS  800.000000E-18 
          RS    1.000000E-03 
         CJO   10.000000E-12 


**** 03/18/22 18:54:05 ******* PSpice Lite (March 2016) ******* ID# 10813 ****

 ** Profile: "SCHEMATIC1-bpt3_2"  [ D:\Practicas\E_General\Termometro_4-PSpiceFiles\SCHEMATIC1\bpt3_2.sim ] 


 ****     BJT MODEL PARAMETERS


******************************************************************************




               Q2N3904         X_U1A.x_lm358.qx 
               NPN             PNP             
       LEVEL    1               1            
          IS    6.734000E-15  800.000000E-18 
          BF  416.4           166.7          
          NF    1               1            
         VAF   74.03                         
         IKF     .06678                      
         ISE    6.734000E-15                 
          NE    1.259                        
          BR     .7371          1            
          NR    1               1            
         ISS    0               0            
          RB   10                            
          RE    0               0            
          RC    1               0            
         CJE    4.493000E-12    0            
         VJE     .75             .75         
         MJE     .2593                       
         CJC    3.638000E-12    0            
         VJC     .75             .75         
         MJC     .3085           .33         
        XCJC    1               1            
         CJS    0               0            
         VJS     .75             .75         
          TF  301.200000E-12                 
         XTF    2                            
         VTF    4                            
         ITF     .4                          
          TR  239.500000E-09                 
         XTB    1.5                          
          KF    0               0            
          AF    1               1            
          CN    2.42            2.2          
           D     .87             .52         


               X_U1B.x_lm358.qx 
               PNP             
       LEVEL    1            
          IS  800.000000E-18 
          BF  166.7          
          NF    1            
          BR    1            
          NR    1            
         ISS    0            
          RE    0            
          RC    0            
         CJE    0            
         VJE     .75         
         CJC    0            
         VJC     .75         
         MJC     .33         
        XCJC    1            
         CJS    0            
         VJS     .75         
          KF    0            
          AF    1            
          CN    2.2          
           D     .52         


**** 03/18/22 18:54:05 ******* PSpice Lite (March 2016) ******* ID# 10813 ****

 ** Profile: "SCHEMATIC1-bpt3_2"  [ D:\Practicas\E_General\Termometro_4-PSpiceFiles\SCHEMATIC1\bpt3_2.sim ] 


 ****     Current Controlled Switch MODEL PARAMETERS


******************************************************************************




               X_U1A.x_lm358.sw2 
         RON    1            
        ROFF   10.000000E+06 
         ION    0            
        IOFF   -1.000000E-06 


               X_U1A.x_lm358.sw1 
         RON    1            
        ROFF   10.000000E+06 
         ION   -1.000000E-06 
        IOFF    0            


               X_U1A.x_lm358.sw3 
         RON    1            
        ROFF   10.000000E+06 
         ION   -1.000000E-06 
        IOFF    0            


               X_U1A.x_lm358.sw4 
         RON    1            
        ROFF   10.000000E+06 
         ION    0            
        IOFF   -1.000000E-06 


               X_U1B.x_lm358.sw2 
         RON    1            
        ROFF   10.000000E+06 
         ION    0            
        IOFF   -1.000000E-06 


               X_U1B.x_lm358.sw1 
         RON    1            
        ROFF   10.000000E+06 
         ION   -1.000000E-06 
        IOFF    0            


               X_U1B.x_lm358.sw3 
         RON    1            
        ROFF   10.000000E+06 
         ION   -1.000000E-06 
        IOFF    0            


               X_U1B.x_lm358.sw4 
         RON    1            
        ROFF   10.000000E+06 
         ION    0            
        IOFF   -1.000000E-06 


**** 03/18/22 18:54:05 ******* PSpice Lite (March 2016) ******* ID# 10813 ****

 ** Profile: "SCHEMATIC1-bpt3_2"  [ D:\Practicas\E_General\Termometro_4-PSpiceFiles\SCHEMATIC1\bpt3_2.sim ] 


 ****     TEMPERATURE-ADJUSTED VALUES      TEMPERATURE =  -70.000 DEG C


******************************************************************************




 **** DIODE MODEL PARAMETERS

                   D1N4148        X_D1.DF    X_U1A.x_lm358.dy

         IS        2.015E-14      1.474E-23      3.127E-25  
         VJ        7.421E-01      1.081E+00      1.081E+00  
        CJO        3.303E-12      0.000E+00      9.403E-12  
         RS        5.664E-01      1.218E+01      1.000E-03  
        IKF        4.417E-02      0.000E+00      0.000E+00  
         BV        1.000E+02  

               X_U1A.x_lm358.dx
                              X_U1B.x_lm358.dy
                                             X_U1B.x_lm358.dx

         IS        3.127E-25      3.127E-25      3.127E-25  
         VJ        1.081E+00      1.081E+00      1.081E+00  
        CJO        0.000E+00      9.403E-12      0.000E+00  
         RS        1.000E+00      1.000E-03      1.000E+00  
        IKF        0.000E+00      0.000E+00      0.000E+00  
         BV                   


 **** BJT MODEL PARAMETERS

                   Q2N3904    X_U1A.x_lm358.qx
                                             X_U1B.x_lm358.qx

         BF        2.319E+02      1.667E+02      1.667E+02  
        ISE        4.073E-22      0.000E+00      0.000E+00  
        VJE        9.113E-01      9.113E-01      9.113E-01  
        CJE        4.197E-12      0.000E+00      0.000E+00  
         RE        0.000E+00      0.000E+00      0.000E+00  
         RB        1.000E+01      0.000E+00      0.000E+00  
         BR        4.104E-01      1.000E+00      1.000E+00  
        ISC        0.000E+00      0.000E+00      0.000E+00  
        VJC        9.113E-01      9.113E-01      9.113E-01  
        CJC        3.353E-12      0.000E+00      0.000E+00  
         RC        1.000E+00      0.000E+00      0.000E+00  
        RBM        1.000E+01      0.000E+00      0.000E+00  
         IS        2.632E-24      3.127E-25      3.127E-25  
        ISS        0.000E+00      0.000E+00      0.000E+00  
        VJS        9.113E-01      9.113E-01      9.113E-01  
        CJS        0.000E+00      0.000E+00      0.000E+00  
      GAMMA        1.000E-11      1.000E-11      1.000E-11  
        RCO        0.000E+00      0.000E+00      0.000E+00  
         VO        1.000E+01      1.000E+01      1.000E+01  


 **** RESISTORS

                X_D1.RBV < >                                

          R        1.233E+03  



**** 03/18/22 18:54:05 ******* PSpice Lite (March 2016) ******* ID# 10813 ****

 ** Profile: "SCHEMATIC1-bpt3_2"  [ D:\Practicas\E_General\Termometro_4-PSpiceFiles\SCHEMATIC1\bpt3_2.sim ] 


 ****     SMALL SIGNAL BIAS SOLUTION       TEMPERATURE =  -70.000 DEG C


******************************************************************************



 NODE   VOLTAGE     NODE   VOLTAGE     NODE   VOLTAGE     NODE   VOLTAGE


(  VCC)    5.0000  (  VSS)   -5.0000  (N00067)     .8091 (N00231)     .8086     

(N00238)     .8087 (N00335)     .7759 (N00342) 46.47E-09 (N00349)     .0217     

(N00931)     .8091 (N00984)   -5.0705 (X_D1.1)-43.22E-15 (X_D1.2)    -.4237     

(X_D1.3)    1.2328 (X_U1A.x_lm358.6)-152.4E-06                                  

(X_U1A.x_lm358.7)     .8086           (X_U1A.x_lm358.8)     .8086               

(X_U1A.x_lm358.9)    0.0000           (X_U1A.x_lm358.a)    5.0000               

(X_U1A.x_lm358.b)-912.6E-09           (X_U1B.x_lm358.6)     .0214               

(X_U1B.x_lm358.7)   -5.2866           (X_U1B.x_lm358.8)   -5.2866               

(X_U1B.x_lm358.9)    0.0000           (X_U1B.x_lm358.a)     .0043               

(X_U1B.x_lm358.b)   -4.9957           (X_U1A.x_lm358.10)    1.6037              

(X_U1A.x_lm358.11)   -4.9603          (X_U1A.x_lm358.12)   -4.9608              

(X_U1A.x_lm358.13)    1.5898          (X_U1A.x_lm358.14)    1.5900              

(X_U1A.x_lm358.53)    3.5000          (X_U1A.x_lm358.54)   -4.1780              

(X_U1A.x_lm358.90)-89.89E-06          (X_U1A.x_lm358.91)   40.0000              

(X_U1A.x_lm358.92)  -40.0000          (X_U1A.x_lm358.99)    0.0000              

(X_U1B.x_lm358.10)    1.6037          (X_U1B.x_lm358.11)   -4.9608              

(X_U1B.x_lm358.12)   -4.9602          (X_U1B.x_lm358.13)    1.5900              

(X_U1B.x_lm358.14)    1.5898          (X_U1B.x_lm358.53)    3.5000              

(X_U1B.x_lm358.54)   -4.1780          (X_U1B.x_lm358.90)   -4.3231              

(X_U1B.x_lm358.91)   40.0000          (X_U1B.x_lm358.92)  -40.0000              

(X_U1B.x_lm358.99)    0.0000          




    VOLTAGE SOURCE CURRENTS
    NAME         CURRENT

    V_V1        -2.269E-03
    V_V2        -2.233E-03
    X_U1A.x_lm358.vb  -1.524E-09
    X_U1A.x_lm358.vc   2.691E-12
    X_U1A.x_lm358.ve   5.558E-12
    X_U1A.x_lm358.vlim  -8.989E-08
    X_U1A.x_lm358.vlp  -4.000E-11
    X_U1A.x_lm358.vln  -4.000E-11
    X_U1B.x_lm358.vb   2.139E-07
    X_U1B.x_lm358.vc   8.570E-12
    X_U1B.x_lm358.ve  -4.323E-03
    X_U1B.x_lm358.vlim  -4.323E-03
    X_U1B.x_lm358.vlp  -4.432E-11
    X_U1B.x_lm358.vln  -3.568E-11

    TOTAL POWER DISSIPATION   2.61E-02  WATTS


**** 03/18/22 18:54:05 ******* PSpice Lite (March 2016) ******* ID# 10813 ****

 ** Profile: "SCHEMATIC1-bpt3_2"  [ D:\Practicas\E_General\Termometro_4-PSpiceFiles\SCHEMATIC1\bpt3_2.sim ] 


 ****     OPERATING POINT INFORMATION      TEMPERATURE =  -70.000 DEG C


******************************************************************************






**** VOLTAGE-CONTROLLED CURRENT SOURCES


NAME         X_D1.GREV   X_D1.GZ     X_U1A.x_lm358.ga      
I-SOURCE    -2.848E-06   0.000E+00   9.712E-08            

NAME         X_U1A.x_lm358.gcm       X_U1B.x_lm358.ga      
I-SOURCE     9.560E-08              -1.183E-07            

NAME         X_U1B.x_lm358.gcm     
I-SOURCE     9.560E-08            


**** VOLTAGE-CONTROLLED VOLTAGE SOURCES


NAME         X_D1.EBV    X_U1A.x_lm358.egnd      X_U1B.x_lm358.egnd    
V-SOURCE     1.233E+00   0.000E+00               0.000E+00            
I-SOURCE    -4.237E-13   2.109E-07               4.323E-03            


**** CURRENT-CONTROLLED CURRENT SOURCES


NAME         X_U1A.x_lm358.fb        X_U1A.x_lm358.fpos    
I-SOURCE    -3.234E-02              -8.989E-08            

NAME         X_U1A.x_lm358.fneg      X_U1B.x_lm358.fb      
I-SOURCE     8.989E-08               2.158E-01            

NAME         X_U1B.x_lm358.fpos      X_U1B.x_lm358.fneg    
I-SOURCE    -4.323E-03               4.323E-03            


**** CURRENT-CONTROLLED VOLTAGE SOURCES


NAME         X_U1A.x_lm358.hlim      X_U1B.x_lm358.hlim    
V-SOURCE    -8.989E-05              -4.323E+00            
I-SOURCE     1.798E-16               8.647E-12            


**** DIODES


NAME         D_D2        D_D3        X_D1.DFWD   X_U1A.x_lm358.dc      
MODEL        D1N4148     D1N4148     X_D1.DF     X_U1A.x_lm358.dy      
ID          -5.97E-14   -5.95E-14   -8.09E-13   -2.69E-12             
VD          -8.09E-01   -7.87E-01   -8.09E-01   -2.69E+00             
REQ          1.59E+14    1.57E+14    1.00E+12    1.00E+12             
CAP          2.58E-12    2.60E-12    0.00E+00    5.03E-12             

NAME         X_U1A.x_lm358.de        X_U1A.x_lm358.dlp     
MODEL        X_U1A.x_lm358.dy        X_U1A.x_lm358.dx      
ID          -4.99E-12               -4.00E-11             
VD          -4.99E+00               -4.00E+01             
REQ          1.00E+12                1.00E+12             
CAP          3.97E-12                0.00E+00             

NAME         X_U1A.x_lm358.dln       X_U1A.x_lm358.dp      
MODEL        X_U1A.x_lm358.dx        X_U1A.x_lm358.dx      
ID          -4.00E-11               -1.00E-11             
VD          -4.00E+01               -1.00E+01             
REQ          1.00E+12                1.00E+12             
CAP          0.00E+00                0.00E+00             

NAME         X_U1B.x_lm358.dc        X_U1B.x_lm358.de      
MODEL        X_U1B.x_lm358.dy        X_U1B.x_lm358.dy      
ID          -8.57E-12                4.32E-03             
VD          -8.57E+00                8.92E-01             
REQ          1.00E+12                4.05E+00             
CAP          3.15E-12                1.76E-11             

NAME         X_U1B.x_lm358.dlp       X_U1B.x_lm358.dln     
MODEL        X_U1B.x_lm358.dx        X_U1B.x_lm358.dx      
ID          -4.43E-11               -3.57E-11             
VD          -4.43E+01               -3.57E+01             
REQ          1.00E+12                1.00E+12             
CAP          0.00E+00                0.00E+00             

NAME         X_U1B.x_lm358.dp      
MODEL        X_U1B.x_lm358.dx      
ID          -1.00E-11             
VD          -1.00E+01             
REQ          1.00E+12             
CAP          0.00E+00             


**** BIPOLAR JUNCTION TRANSISTORS


NAME         Q_Q1        Q_Q2        X_U1A.x_lm358.q1      
MODEL        Q2N3904     Q2N3904     X_U1A.x_lm358.qx      
IB           3.32E-05   -3.35E-15   -4.49E-08             
IC           5.95E-14   -7.76E-13   -7.49E-06             
VBE          7.76E-01   -7.76E-01   -7.81E-01             
VBC          7.54E-01    4.65E-08    5.77E+00             
VCE          2.17E-02   -7.76E-01   -6.55E+00             
BETADC       1.79E-09    2.32E+02    1.67E+02             
GM           1.84E-03    1.05E-14    4.28E-04             
RPI          2.14E+04    2.32E+14    3.90E+05             
RX           1.00E+01    1.00E+01    0.00E+00             
RO           1.34E+03    1.01E+12    1.00E+12             
CBE          6.72E-12    3.58E-12    0.00E+00             
CBC          1.86E-10    3.35E-12    0.00E+00             
CJS          0.00E+00    0.00E+00    0.00E+00             
BETAAC       3.94E+01    2.43E+00    1.67E+02             
CBX/CBX2     0.00E+00    0.00E+00    0.00E+00             
FT/FT2       1.52E+06    2.41E-04    6.81E+15             



NAME         X_U1A.x_lm358.q2        X_U1B.x_lm358.q1      
MODEL        X_U1A.x_lm358.qx        X_U1B.x_lm358.qx      
IB          -4.43E-08               -4.43E-08             
IC          -7.39E-06               -7.38E-06             
VBE         -7.81E-01               -7.81E-01             
VBC          5.77E+00                5.77E+00             
VCE         -6.55E+00               -6.55E+00             
BETADC       1.67E+02                1.67E+02             
GM           4.22E-04                4.22E-04             
RPI          3.95E+05                3.95E+05             
RX           0.00E+00                0.00E+00             
RO           1.00E+12                1.00E+12             
CBE          0.00E+00                0.00E+00             
CBC          0.00E+00                0.00E+00             
CJS          0.00E+00                0.00E+00             
BETAAC       1.67E+02                1.67E+02             
CBX/CBX2     0.00E+00                0.00E+00             
FT/FT2       6.72E+15                6.71E+15             



NAME         X_U1B.x_lm358.q2      
MODEL        X_U1B.x_lm358.qx      
IB          -4.50E-08             
IC          -7.50E-06             
VBE         -7.81E-01             
VBC          5.77E+00             
VCE         -6.55E+00             
BETADC       1.67E+02             
GM           4.28E-04             
RPI          3.89E+05             
RX           0.00E+00             
RO           1.00E+12             
CBE          0.00E+00             
CBC          0.00E+00             
CJS          0.00E+00             
BETAAC       1.67E+02             
CBX/CBX2     0.00E+00             
FT/FT2       6.82E+15             




**** CURRENT CONTROLLED SWITCHES


NAME         X_U1A.x_lm358.w2        X_U1A.x_lm358.w1      
MODEL        X_U1A.x_lm358.sw2       X_U1A.x_lm358.sw1     
I LOAD       6.32E-07                7.22E-07             
V LOAD       9.13E-07                5.00E+00             
R LOAD       1.44E+00                6.93E+06             
I CTRL      -8.99E-08               -8.99E-08             

NAME         X_U1A.x_lm358.w3        X_U1A.x_lm358.w4      
MODEL        X_U1A.x_lm358.sw3       X_U1A.x_lm358.sw4     
I LOAD      -7.22E-07               -6.32E-07             
V LOAD      -5.00E+00               -9.13E-07             
R LOAD       6.93E+06                1.44E+00             
I CTRL      -8.99E-08               -8.99E-08             

NAME         X_U1B.x_lm358.w2        X_U1B.x_lm358.w1      
MODEL        X_U1B.x_lm358.sw2       X_U1B.x_lm358.sw1     
I LOAD       5.00E-07                4.32E-03             
V LOAD       5.00E+00                4.32E-03             
R LOAD       1.00E+07                1.00E+00             
I CTRL      -4.32E-03               -4.32E-03             

NAME         X_U1B.x_lm358.w3        X_U1B.x_lm358.w4      
MODEL        X_U1B.x_lm358.sw3       X_U1B.x_lm358.sw4     
I LOAD      -4.32E-03               -5.00E-07             
