
**** 03/18/22 14:20:55 ******* PSpice Lite (March 2016) ******* ID# 10813 ****

 ** Profile: "SCHEMATIC1-bias_termometro1_1"  [ D:\Practicas\E_General\Termometro3-PSpiceFiles\SCHEMATIC1\bias_termometro1_1.sim ] 


 ****     CIRCUIT DESCRIPTION


******************************************************************************




** Creating circuit file "bias_termometro1_1.cir" 
** WARNING: THIS AUTOMATICALLY GENERATED FILE MAY BE OVERWRITTEN BY SUBSEQUENT SIMULATIONS

*Libraries: 
* Profile Libraries :
* Local Libraries :
* From [PSPICE NETLIST] section of C:\SPB_DATA\cdssetup\OrCAD_PSpice\17.2.0\PSpice.ini file:
.lib "nomd.lib" 

*Analysis directives: 
.TEMP -70 -10 30
.OPTIONS ADVCONV
.PROBE64 V(alias(*)) I(alias(*)) W(alias(*)) D(alias(*)) NOISE(alias(*)) 
.INC "..\SCHEMATIC1.net" 



**** INCLUDING SCHEMATIC1.net ****
* source TERMOMETRO3
X_U1         N00122 0 AD1580/AD
R_R1         N00085 VCC  68k TC=0,0 
R_R2         N00122 N00085  6.8k TC=0,0 
V_V1         VCC 0 5
V_V2         VSS 0 5
X_U2A         N00122 N00502 VCC VSS N00494 LM358
D_D1         0 N00502 D1N4148 
R_R3         N00502 N00498  1k TC=0,0 
Q_Q1         VCC N00494 N00498 Q2N3904

**** RESUMING bias_termometro1_1.cir ****
.END

**** 03/18/22 14:20:55 ******* PSpice Lite (March 2016) ******* ID# 10813 ****

 ** Profile: "SCHEMATIC1-bias_termometro1_1"  [ D:\Practicas\E_General\Termometro3-PSpiceFiles\SCHEMATIC1\bias_termometro1_1.sim ] 


 ****     Diode MODEL PARAMETERS


******************************************************************************




               D1N4148         X_U2A.x_lm358.dx 
          IS    2.682000E-09  800.000000E-18 
           N    1.836                        
         ISR    1.565000E-09                 
         IKF     .04417                      
          BV  100                            
         IBV  100.000000E-06                 
          RS     .5664          1            
          TT   11.540000E-09                 
         CJO    4.000000E-12                 
          VJ     .5                          
           M     .3333                       


               X_U2A.x_lm358.dy 
          IS  800.000000E-18 
          RS    1.000000E-03 
         CJO   10.000000E-12 


**** 03/18/22 14:20:55 ******* PSpice Lite (March 2016) ******* ID# 10813 ****

 ** Profile: "SCHEMATIC1-bias_termometro1_1"  [ D:\Practicas\E_General\Termometro3-PSpiceFiles\SCHEMATIC1\bias_termometro1_1.sim ] 


 ****     BJT MODEL PARAMETERS


******************************************************************************




               Q2N3904         X_U1.qn1        X_U1.qn2        X_U1.qp1        
               NPN             NPN             NPN             PNP             
       LEVEL    1               1               1               1            
          IS    6.734000E-15  100.000000E-18  100.000000E-18  100.000000E-18 
          BF  416.4           100             100              50.000000E+03 
          NF    1               1               1               1            
         VAF   74.03          100             100             100            
         IKF     .06678                                                      
         ISE    6.734000E-15                                                 
          NE    1.259                                                        
          BR     .7371          1               1               1            
          NR    1               1               1               1            
         ISS    0               0               0               0            
          RB   10                                                            
          RE    0               0               0               0            
          RC    1               0               0               0            
         CJE    4.493000E-12    0               0               0            
         VJE     .75             .75             .75             .75         
         MJE     .2593                                                       
         CJC    3.638000E-12    0               0               0            
         VJC     .75             .75             .75             .75         
         MJC     .3085           .33             .33             .33         
        XCJC    1               1               1               1            
         CJS    0               0               0               0            
         VJS     .75             .75             .75             .75         
          TF  301.200000E-12                                                 
         XTF    2                                                            
         VTF    4                                                            
         ITF     .4                                                          
          TR  239.500000E-09                                                 
         XTB    1.5                                                          
          KF    0               0               0               0            
          AF    1               1               1               1            
          CN    2.42            2.42            2.42            2.2          
           D     .87             .87             .87             .52         


               X_U2A.x_lm358.qx 
               PNP             
       LEVEL    1            
          IS  800.000000E-18 
          BF  166.7          
          NF    1            
          BR    1            
          NR    1            
         ISS    0            
          RE    0            
          RC    0            
         CJE    0            
         VJE     .75         
         CJC    0            
         VJC     .75         
         MJC     .33         
        XCJC    1            
         CJS    0            
         VJS     .75         
          KF    0            
          AF    1            
          CN    2.2          
           D     .52         


**** 03/18/22 14:20:55 ******* PSpice Lite (March 2016) ******* ID# 10813 ****

 ** Profile: "SCHEMATIC1-bias_termometro1_1"  [ D:\Practicas\E_General\Termometro3-PSpiceFiles\SCHEMATIC1\bias_termometro1_1.sim ] 


 ****     Current Controlled Switch MODEL PARAMETERS


******************************************************************************




               X_U2A.x_lm358.sw2 
         RON    1            
        ROFF   10.000000E+06 
         ION    0            
        IOFF   -1.000000E-06 


               X_U2A.x_lm358.sw1 
         RON    1            
        ROFF   10.000000E+06 
         ION   -1.000000E-06 
        IOFF    0            


               X_U2A.x_lm358.sw3 
         RON    1            
        ROFF   10.000000E+06 
         ION   -1.000000E-06 
        IOFF    0            


               X_U2A.x_lm358.sw4 
         RON    1            
        ROFF   10.000000E+06 
         ION    0            
        IOFF   -1.000000E-06 


**** 03/18/22 14:20:55 ******* PSpice Lite (March 2016) ******* ID# 10813 ****

 ** Profile: "SCHEMATIC1-bias_termometro1_1"  [ D:\Practicas\E_General\Termometro3-PSpiceFiles\SCHEMATIC1\bias_termometro1_1.sim ] 


 ****     TEMPERATURE-ADJUSTED VALUES      TEMPERATURE =  -70.000 DEG C


******************************************************************************




 **** DIODE MODEL PARAMETERS

                   D1N4148    X_U2A.x_lm358.dy
                                             X_U2A.x_lm358.dx

         IS        2.015E-14      3.127E-25      3.127E-25  
         VJ        7.421E-01      1.081E+00      1.081E+00  
        CJO        3.303E-12      9.403E-12      0.000E+00  
         RS        5.664E-01      1.000E-03      1.000E+00  
        IKF        4.417E-02      0.000E+00      0.000E+00  
         BV        1.000E+02  


 **** BJT MODEL PARAMETERS

                   Q2N3904       X_U1.qn1       X_U1.qn2    

         BF        2.319E+02      1.000E+02      1.000E+02  
        ISE        4.073E-22      0.000E+00      0.000E+00  
        VJE        9.113E-01      9.113E-01      9.113E-01  
        CJE        4.197E-12      0.000E+00      0.000E+00  
         RE        0.000E+00      0.000E+00      0.000E+00  
         RB        1.000E+01      0.000E+00      0.000E+00  
         BR        4.104E-01      1.000E+00      1.000E+00  
        ISC        0.000E+00      0.000E+00      0.000E+00  
        VJC        9.113E-01      9.113E-01      9.113E-01  
        CJC        3.353E-12      0.000E+00      0.000E+00  
         RC        1.000E+00      0.000E+00      0.000E+00  
        RBM        1.000E+01      0.000E+00      0.000E+00  
         IS        2.632E-24      3.908E-26      3.908E-26  
        ISS        0.000E+00      0.000E+00      0.000E+00  
        VJS        9.113E-01      9.113E-01      9.113E-01  
        CJS        0.000E+00      0.000E+00      0.000E+00  
      GAMMA        1.000E-11      1.000E-11      1.000E-11  
        RCO        0.000E+00      0.000E+00      0.000E+00  
         VO        1.000E+01      1.000E+01      1.000E+01  

                  X_U1.qp1    X_U2A.x_lm358.qx

         BF        5.000E+04      1.667E+02  
        ISE        0.000E+00      0.000E+00  
        VJE        9.113E-01      9.113E-01  
        CJE        0.000E+00      0.000E+00  
         RE        0.000E+00      0.000E+00  
         RB        0.000E+00      0.000E+00  
         BR        1.000E+00      1.000E+00  
        ISC        0.000E+00      0.000E+00  
        VJC        9.113E-01      9.113E-01  
        CJC        0.000E+00      0.000E+00  
         RC        0.000E+00      0.000E+00  
        RBM        0.000E+00      0.000E+00  
         IS        3.908E-26      3.127E-25  
        ISS        0.000E+00      0.000E+00  
        VJS        9.113E-01      9.113E-01  
        CJS        0.000E+00      0.000E+00  
      GAMMA        1.000E-11      1.000E-11  
        RCO        0.000E+00      0.000E+00  
         VO        1.000E+01      1.000E+01  


**** 03/18/22 14:20:55 ******* PSpice Lite (March 2016) ******* ID# 10813 ****

 ** Profile: "SCHEMATIC1-bias_termometro1_1"  [ D:\Practicas\E_General\Termometro3-PSpiceFiles\SCHEMATIC1\bias_termometro1_1.sim ] 


 ****     SMALL SIGNAL BIAS SOLUTION       TEMPERATURE =  -70.000 DEG C


******************************************************************************



 NODE   VOLTAGE     NODE   VOLTAGE     NODE   VOLTAGE     NODE   VOLTAGE


(  VCC)    5.0000  (  VSS)    5.0000  (N00085)    1.5471 (N00122)    1.2019     

(N00494)    4.6610 (N00498)    4.9503 (N00502)    4.9503 (X_U1.2)    1.0404     

(X_U1.3)     .8230 (X_U1.4)     .8231 (X_U1.5)     .7950 (X_U1.6)     .3076     

(X_U1.7)     .7950 (X_U2A.x_lm358.6)  -55.4600                                  

(X_U2A.x_lm358.7)    6.7039           (X_U2A.x_lm358.8)    6.7039               

(X_U2A.x_lm358.9)    0.0000           (X_U2A.x_lm358.a)    4.9591               

(X_U2A.x_lm358.b)    -.0409           (X_U2A.x_lm358.10)    2.0873              

(X_U2A.x_lm358.11)    5.0000          (X_U2A.x_lm358.12)    2.0587              

(X_U2A.x_lm358.13)    2.0873          (X_U2A.x_lm358.14)    2.0591              

(X_U2A.x_lm358.53)    3.5000          (X_U2A.x_lm358.54)    5.8220              

(X_U2A.x_lm358.90)   40.8580          (X_U2A.x_lm358.91)   40.0000              

(X_U2A.x_lm358.92)  -40.0000          (X_U2A.x_lm358.99)    5.0000          




    VOLTAGE SOURCE CURRENTS
    NAME         CURRENT

    V_V1         9.374E+01
    V_V2        -9.374E+01
    X_U1.vic     1.023E-05
    X_U2A.x_lm358.vb  -5.546E-04
    X_U2A.x_lm358.vc  -9.378E+01
    X_U2A.x_lm358.ve  -9.374E+01
    X_U2A.x_lm358.vlim   4.086E-02
    X_U2A.x_lm358.vlp   5.864E-04
    X_U2A.x_lm358.vln  -8.086E-11

    TOTAL POWER DISSIPATION   2.18E+02  WATTS


**** 03/18/22 14:20:55 ******* PSpice Lite (March 2016) ******* ID# 10813 ****

 ** Profile: "SCHEMATIC1-bias_termometro1_1"  [ D:\Practicas\E_General\Termometro3-PSpiceFiles\SCHEMATIC1\bias_termometro1_1.sim ] 


 ****     TEMPERATURE-ADJUSTED VALUES      TEMPERATURE =  -10.000 DEG C


******************************************************************************




 **** DIODE MODEL PARAMETERS

                   D1N4148    X_U2A.x_lm358.dy
                                             X_U2A.x_lm358.dx

         IS        8.086E-11      1.291E-18      1.291E-18  
         VJ        5.942E-01      1.033E+00      1.033E+00  
        CJO        3.729E-12      9.763E-12      0.000E+00  
         RS        5.664E-01      1.000E-03      1.000E+00  
        IKF        4.417E-02      0.000E+00      0.000E+00  
         BV        1.000E+02  


 **** BJT MODEL PARAMETERS

                   Q2N3904       X_U1.qn1       X_U1.qn2    

         BF        3.418E+02      1.000E+02      1.000E+02  
        ISE        4.969E-17      0.000E+00      0.000E+00  
        VJE        8.134E-01      8.134E-01      8.134E-01  
        CJE        4.377E-12      0.000E+00      0.000E+00  
         RE        0.000E+00      0.000E+00      0.000E+00  
         RB        1.000E+01      0.000E+00      0.000E+00  
         BR        6.051E-01      1.000E+00      1.000E+00  
        ISC        0.000E+00      0.000E+00      0.000E+00  
        VJC        8.134E-01      8.134E-01      8.134E-01  
        CJC        3.527E-12      0.000E+00      0.000E+00  
         RC        1.000E+00      0.000E+00      0.000E+00  
        RBM        1.000E+01      0.000E+00      0.000E+00  
         IS        1.087E-17      1.614E-19      1.614E-19  
        ISS        0.000E+00      0.000E+00      0.000E+00  
        VJS        8.134E-01      8.134E-01      8.134E-01  
        CJS        0.000E+00      0.000E+00      0.000E+00  
      GAMMA        1.000E-11      1.000E-11      1.000E-11  
        RCO        0.000E+00      0.000E+00      0.000E+00  
         VO        1.000E+01      1.000E+01      1.000E+01  

                  X_U1.qp1    X_U2A.x_lm358.qx

         BF        5.000E+04      1.667E+02  
        ISE        0.000E+00      0.000E+00  
        VJE        8.134E-01      8.134E-01  
        CJE        0.000E+00      0.000E+00  
         RE        0.000E+00      0.000E+00  
         RB        0.000E+00      0.000E+00  
         BR        1.000E+00      1.000E+00  
        ISC        0.000E+00      0.000E+00  
        VJC        8.134E-01      8.134E-01  
        CJC        0.000E+00      0.000E+00  
         RC        0.000E+00      0.000E+00  
        RBM        0.000E+00      0.000E+00  
         IS        1.614E-19      1.291E-18  
        ISS        0.000E+00      0.000E+00  
        VJS        8.134E-01      8.134E-01  
        CJS        0.000E+00      0.000E+00  
      GAMMA        1.000E-11      1.000E-11  
        RCO        0.000E+00      0.000E+00  
         VO        1.000E+01      1.000E+01  


**** 03/18/22 14:20:55 ******* PSpice Lite (March 2016) ******* ID# 10813 ****

 ** Profile: "SCHEMATIC1-bias_termometro1_1"  [ D:\Practicas\E_General\Termometro3-PSpiceFiles\SCHEMATIC1\bias_termometro1_1.sim ] 


 ****     SMALL SIGNAL BIAS SOLUTION       TEMPERATURE =  -10.000 DEG C


******************************************************************************



 NODE   VOLTAGE     NODE   VOLTAGE     NODE   VOLTAGE     NODE   VOLTAGE


(  VCC)    5.0000  (  VSS)    5.0000  (N00085)    1.5612 (N00122)    1.2173     

(N00494)    4.6610 (N00498)    4.5713 (N00502)    4.5713 (X_U1.2)    1.0081     

(X_U1.3)     .7265 (X_U1.4)     .7266 (X_U1.5)     .6903 (X_U1.6)     .4041     

(X_U1.7)     .6903 (X_U2A.x_lm358.6)  -56.9000                                  

(X_U2A.x_lm358.7)    6.6993           (X_U2A.x_lm358.8)    6.6993               

(X_U2A.x_lm358.9)    0.0000           (X_U2A.x_lm358.a)    4.9592               

(X_U2A.x_lm358.b)    -.0408           (X_U2A.x_lm358.10)    2.0111              

(X_U2A.x_lm358.11)    5.0000          (X_U2A.x_lm358.12)    1.9824              

(X_U2A.x_lm358.13)    2.0111          (X_U2A.x_lm358.14)    1.9828              

(X_U2A.x_lm358.53)    3.5000          (X_U2A.x_lm358.54)    5.8220              

(X_U2A.x_lm358.90)   40.7660          (X_U2A.x_lm358.91)   40.0000              

(X_U2A.x_lm358.92)  -40.0000          (X_U2A.x_lm358.99)    5.0000          




    VOLTAGE SOURCE CURRENTS
    NAME         CURRENT

    V_V1         1.186E+02
    V_V2        -1.186E+02
    X_U1.vic     1.325E-05
    X_U2A.x_lm358.vb  -5.690E-04
    X_U2A.x_lm358.vc  -1.187E+02
    X_U2A.x_lm358.ve  -1.186E+02
    X_U2A.x_lm358.vlim   4.077E-02
    X_U2A.x_lm358.vlp   6.017E-04
    X_U2A.x_lm358.vln  -8.077E-11

    TOTAL POWER DISSIPATION   2.76E+02  WATTS


**** 03/18/22 14:20:55 ******* PSpice Lite (March 2016) ******* ID# 10813 ****

 ** Profile: "SCHEMATIC1-bias_termometro1_1"  [ D:\Practicas\E_General\Termometro3-PSpiceFiles\SCHEMATIC1\bias_termometro1_1.sim ] 


 ****     TEMPERATURE-ADJUSTED VALUES      TEMPERATURE =   30.000 DEG C


******************************************************************************




 **** DIODE MODEL PARAMETERS

                   D1N4148    X_U2A.x_lm358.dy
                                             X_U2A.x_lm358.dx

         IS        3.435E-09      1.260E-15      1.260E-15  
         VJ        4.923E-01      9.973E-01      9.973E-01  
        CJO        4.022E-12      1.002E-11      0.000E+00  
         RS        5.664E-01      1.000E-03      1.000E+00  
        IKF        4.417E-02      0.000E+00      0.000E+00  
         BV        1.000E+02  


 **** BJT MODEL PARAMETERS

                   Q2N3904       X_U1.qn1       X_U1.qn2    

         BF        4.227E+02      1.000E+02      1.000E+02  
        ISE        9.519E-15      0.000E+00      0.000E+00  
        VJE        7.448E-01      7.448E-01      7.448E-01  
        CJE        4.503E-12      0.000E+00      0.000E+00  
         RE        0.000E+00      0.000E+00      0.000E+00  
         RB        1.000E+01      0.000E+00      0.000E+00  
         BR        7.482E-01      1.000E+00      1.000E+00  
        ISC        0.000E+00      0.000E+00      0.000E+00  
        VJC        7.448E-01      7.448E-01      7.448E-01  
        CJC        3.647E-12      0.000E+00      0.000E+00  
         RC        1.000E+00      0.000E+00      0.000E+00  
        RBM        1.000E+01      0.000E+00      0.000E+00  
         IS        1.061E-14      1.575E-16      1.575E-16  
        ISS        0.000E+00      0.000E+00      0.000E+00  
        VJS        7.448E-01      7.448E-01      7.448E-01  
        CJS        0.000E+00      0.000E+00      0.000E+00  
      GAMMA        1.000E-11      1.000E-11      1.000E-11  
        RCO        0.000E+00      0.000E+00      0.000E+00  
         VO        1.000E+01      1.000E+01      1.000E+01  

                  X_U1.qp1    X_U2A.x_lm358.qx

         BF        5.000E+04      1.667E+02  
        ISE        0.000E+00      0.000E+00  
        VJE        7.448E-01      7.448E-01  
        CJE        0.000E+00      0.000E+00  
         RE        0.000E+00      0.000E+00  
         RB        0.000E+00      0.000E+00  
         BR        1.000E+00      1.000E+00  
        ISC        0.000E+00      0.000E+00  
        VJC        7.448E-01      7.448E-01  
        CJC        0.000E+00      0.000E+00  
         RC        0.000E+00      0.000E+00  
        RBM        0.000E+00      0.000E+00  
         IS        1.575E-16      1.260E-15  
        ISS        0.000E+00      0.000E+00  
        VJS        7.448E-01      7.448E-01  
        CJS        0.000E+00      0.000E+00  
      GAMMA        1.000E-11      1.000E-11  
        RCO        0.000E+00      0.000E+00  
         VO        1.000E+01      1.000E+01  


**** 03/18/22 14:20:55 ******* PSpice Lite (March 2016) ******* ID# 10813 ****

 ** Profile: "SCHEMATIC1-bias_termometro1_1"  [ D:\Practicas\E_General\Termometro3-PSpiceFiles\SCHEMATIC1\bias_termometro1_1.sim ] 


 ****     SMALL SIGNAL BIAS SOLUTION       TEMPERATURE =   30.000 DEG C


