
**** 03/19/22 20:13:33 ******* PSpice Lite (March 2016) ******* ID# 10813 ****

 ** Profile: "SCHEMATIC1-bpt3"  [ D:\Practicas\E_General\termometro_final-pspicefiles\schematic1\bpt3.sim ] 


 ****     CIRCUIT DESCRIPTION


******************************************************************************




** Creating circuit file "bpt3.cir" 
** WARNING: THIS AUTOMATICALLY GENERATED FILE MAY BE OVERWRITTEN BY SUBSEQUENT SIMULATIONS

*Libraries: 
* Profile Libraries :
* Local Libraries :
* From [PSPICE NETLIST] section of C:\SPB_DATA\cdssetup\OrCAD_PSpice\17.2.0\PSpice.ini file:
.lib "nomd.lib" 

*Analysis directives: 
.OP
.TEMP -70
.OPTIONS ADVCONV
.PROBE64 V(alias(*)) I(alias(*)) W(alias(*)) D(alias(*)) NOISE(alias(*)) 
.INC "..\SCHEMATIC1.net" 



**** INCLUDING SCHEMATIC1.net ****
* source TERMOMETRO_FINAL
X_D1         0 N05719 LM385 
V_V1         VC+ 0 5
R_R1         N05719 VC+  188.2K TC=0,0 
V_V2         0 VS- 5
R_R4         0 N05719  1.2k TC=0,0 
R_R5         0 N05719  1.2k TC=0,0 
D_D4         N09642 N05719 D1N4148 
X_U3B         N09628 N09647 VS- VC+ N09382 LM358
R_R6         N10835 N09628  1k TC=0,0 
R_R7         N09642 N09647  1k TC=0,0 
R_R8         N09628 N09382  1k TC=0,0 
R_R9         0 N09647  1k TC=0,0 
D_D3         N10835 N05719 D1N4148 

**** RESUMING bpt3.cir ****
.END

**** 03/19/22 20:13:33 ******* PSpice Lite (March 2016) ******* ID# 10813 ****

 ** Profile: "SCHEMATIC1-bpt3"  [ D:\Practicas\E_General\termometro_final-pspicefiles\schematic1\bpt3.sim ] 


 ****     Diode MODEL PARAMETERS


******************************************************************************




               D1N4148         X_D1.DF         
          IS    2.682000E-09   39.120000E-15 
           N    1.836            .9983       
         ISR    1.565000E-09                 
         IKF     .04417                      
          BV  100                            
         IBV  100.000000E-06                 
          RS     .5664         12.18         
          TT   11.540000E-09                 
         CJO    4.000000E-12                 
          VJ     .5                          
           M     .3333                       


               X_U3B.x_lm358.dx 
          IS  800.000000E-18 
          RS    1            


               X_U3B.x_lm358.dy 
          IS  800.000000E-18 
          RS    1.000000E-03 
         CJO   10.000000E-12 


**** 03/19/22 20:13:33 ******* PSpice Lite (March 2016) ******* ID# 10813 ****

 ** Profile: "SCHEMATIC1-bpt3"  [ D:\Practicas\E_General\termometro_final-pspicefiles\schematic1\bpt3.sim ] 


 ****     BJT MODEL PARAMETERS


******************************************************************************




               X_U3B.x_lm358.qx 
               PNP             
       LEVEL    1            
          IS  800.000000E-18 
          BF  166.7          
          NF    1            
          BR    1            
          NR    1            
         ISS    0            
          RE    0            
          RC    0            
         CJE    0            
         VJE     .75         
         CJC    0            
         VJC     .75         
         MJC     .33         
        XCJC    1            
         CJS    0            
         VJS     .75         
          KF    0            
          AF    1            
          CN    2.2          
           D     .52         


**** 03/19/22 20:13:33 ******* PSpice Lite (March 2016) ******* ID# 10813 ****

 ** Profile: "SCHEMATIC1-bpt3"  [ D:\Practicas\E_General\termometro_final-pspicefiles\schematic1\bpt3.sim ] 


 ****     Current Controlled Switch MODEL PARAMETERS


******************************************************************************




               X_U3B.x_lm358.sw2 
         RON    1            
        ROFF   10.000000E+06 
         ION    0            
        IOFF   -1.000000E-06 


               X_U3B.x_lm358.sw1 
         RON    1            
        ROFF   10.000000E+06 
         ION   -1.000000E-06 
        IOFF    0            


               X_U3B.x_lm358.sw3 
         RON    1            
        ROFF   10.000000E+06 
         ION   -1.000000E-06 
        IOFF    0            


               X_U3B.x_lm358.sw4 
         RON    1            
        ROFF   10.000000E+06 
         ION    0            
        IOFF   -1.000000E-06 


**** 03/19/22 20:13:33 ******* PSpice Lite (March 2016) ******* ID# 10813 ****

 ** Profile: "SCHEMATIC1-bpt3"  [ D:\Practicas\E_General\termometro_final-pspicefiles\schematic1\bpt3.sim ] 


 ****     TEMPERATURE-ADJUSTED VALUES      TEMPERATURE =  -70.000 DEG C


******************************************************************************




 **** DIODE MODEL PARAMETERS

                   D1N4148        X_D1.DF    X_U3B.x_lm358.dy

         IS        2.015E-14      1.474E-23      3.127E-25  
         VJ        7.421E-01      1.081E+00      1.081E+00  
        CJO        3.303E-12      0.000E+00      9.403E-12  
         RS        5.664E-01      1.218E+01      1.000E-03  
        IKF        4.417E-02      0.000E+00      0.000E+00  
         BV        1.000E+02  

               X_U3B.x_lm358.dx

         IS        3.127E-25  
         VJ        1.081E+00  
        CJO        0.000E+00  
         RS        1.000E+00  
        IKF        0.000E+00  
         BV                   


 **** BJT MODEL PARAMETERS

               X_U3B.x_lm358.qx

         BF        1.667E+02  
        ISE        0.000E+00  
        VJE        9.113E-01  
        CJE        0.000E+00  
         RE        0.000E+00  
         RB        0.000E+00  
         BR        1.000E+00  
        ISC        0.000E+00  
        VJC        9.113E-01  
        CJC        0.000E+00  
         RC        0.000E+00  
        RBM        0.000E+00  
         IS        3.127E-25  
        ISS        0.000E+00  
        VJS        9.113E-01  
        CJS        0.000E+00  
      GAMMA        1.000E-11  
        RCO        0.000E+00  
         VO        1.000E+01  


 **** RESISTORS

                X_D1.RBV < >                                

          R        1.233E+03  



**** 03/19/22 20:13:33 ******* PSpice Lite (March 2016) ******* ID# 10813 ****

 ** Profile: "SCHEMATIC1-bpt3"  [ D:\Practicas\E_General\termometro_final-pspicefiles\schematic1\bpt3.sim ] 


 ****     SMALL SIGNAL BIAS SOLUTION       TEMPERATURE =  -70.000 DEG C


******************************************************************************



 NODE   VOLTAGE     NODE   VOLTAGE     NODE   VOLTAGE     NODE   VOLTAGE


(  VC+)    5.0000  (  VS-)   -5.0000  (N05719)     .0175 (N09382)    -.3390     

(N09628)     .4208 (N09642)     .6146 (N09647)     .6174 (N10835)     .4208     

(X_D1.1)-124.0E-15 (X_D1.2)   -1.2153 (X_D1.3)    1.2328                        

(X_U3B.x_lm358.6)   -3.6304           (X_U3B.x_lm358.7)    1.7015               

(X_U3B.x_lm358.8)    1.7015           (X_U3B.x_lm358.9)    0.0000               

(X_U3B.x_lm358.a)   -5.0408           (X_U3B.x_lm358.b)    -.0408               

(X_U3B.x_lm358.10)    1.3930          (X_U3B.x_lm358.11)    1.4758              

(X_U3B.x_lm358.12)    1.2827          (X_U3B.x_lm358.13)    1.4744              

(X_U3B.x_lm358.14)    1.2839          (X_U3B.x_lm358.53)   -6.5000              

(X_U3B.x_lm358.54)    5.8220          (X_U3B.x_lm358.90)   40.8090              

(X_U3B.x_lm358.91)   40.0000          (X_U3B.x_lm358.92)  -40.0000              

(X_U3B.x_lm358.99)    0.0000          




    VOLTAGE SOURCE CURRENTS
    NAME         CURRENT

    V_V1        -5.033E+03
    V_V2        -5.033E+03
    X_U3B.x_lm358.vb  -3.630E-05
    X_U3B.x_lm358.vc  -5.024E+03
    X_U3B.x_lm358.ve  -5.024E+03
    X_U3B.x_lm358.vlim   4.081E-02
    X_U3B.x_lm358.vlp   3.643E-05
    X_U3B.x_lm358.vln  -8.081E-11

    TOTAL POWER DISSIPATION   6.20E+04  WATTS


**** 03/19/22 20:13:33 ******* PSpice Lite (March 2016) ******* ID# 10813 ****

 ** Profile: "SCHEMATIC1-bpt3"  [ D:\Practicas\E_General\termometro_final-pspicefiles\schematic1\bpt3.sim ] 


 ****     OPERATING POINT INFORMATION      TEMPERATURE =  -70.000 DEG C


******************************************************************************






**** VOLTAGE-CONTROLLED CURRENT SOURCES


NAME         X_D1.GREV   X_D1.GZ     X_U3B.x_lm358.ga      
I-SOURCE    -6.175E-08   0.000E+00   3.639E-05            

NAME         X_U3B.x_lm358.gcm     
I-SOURCE     8.304E-08            


**** VOLTAGE-CONTROLLED VOLTAGE SOURCES


NAME         X_D1.EBV    X_U3B.x_lm358.egnd    
V-SOURCE     1.233E+00   0.000E+00            
I-SOURCE    -1.215E-12  -4.081E-02            


**** CURRENT-CONTROLLED CURRENT SOURCES


NAME         X_U3B.x_lm358.fb        X_U3B.x_lm358.fpos    
I-SOURCE    -1.107E-01               4.081E-02            

NAME         X_U3B.x_lm358.fneg    
I-SOURCE    -4.081E-02            


**** CURRENT-CONTROLLED VOLTAGE SOURCES


NAME         X_U3B.x_lm358.hlim    
V-SOURCE     4.081E+01            
I-SOURCE    -3.644E-05            


**** DIODES


NAME         D_D4        D_D3        X_D1.DFWD   X_U3B.x_lm358.dc      
MODEL        D1N4148     D1N4148     X_D1.DF     X_U3B.x_lm358.dy      
ID           2.82E-06    8.07E-09   -1.75E-14    5.02E+03             
VD           5.97E-01    4.03E-01   -1.75E-02    6.16E+00             
REQ          1.17E+04    4.12E+06    1.00E+12    3.48E-06             
CAP          5.99E-12    4.28E-12    0.00E+00    2.06E-11             

NAME         X_U3B.x_lm358.de        X_U3B.x_lm358.dlp     
MODEL        X_U3B.x_lm358.dy        X_U3B.x_lm358.dx      
ID           5.02E+03                3.64E-05             
VD           6.16E+00                8.09E-01             
REQ          3.48E-06                4.80E+02             
CAP          2.06E-11                0.00E+00             

NAME         X_U3B.x_lm358.dln       X_U3B.x_lm358.dp      
MODEL        X_U3B.x_lm358.dx        X_U3B.x_lm358.dx      
ID          -8.08E-11                8.97E+00             
VD          -8.08E+01                1.00E+01             
REQ          1.00E+12                1.95E-03             
CAP          0.00E+00                0.00E+00             


**** BIPOLAR JUNCTION TRANSISTORS


NAME         X_U3B.x_lm358.q1        X_U3B.x_lm358.q2      
MODEL        X_U3B.x_lm358.qx        X_U3B.x_lm358.qx      
IB          -6.20E-04               -7.60E-04             
IC           6.64E-04                7.01E-04             
VBE         -8.57E-01               -8.63E-01             
VBC         -8.58E-01               -8.62E-01             
VCE          1.40E-03               -1.21E-03             
BETADC      -1.07E+00               -9.22E-01             
GM          -2.71E-03                3.10E-03             
RPI          5.13E+03                3.61E+03             
RX           0.00E+00                0.00E+00             
RO           2.84E+01                2.32E+01             
CBE          0.00E+00                0.00E+00             
CBC          0.00E+00                0.00E+00             
CJS          0.00E+00                0.00E+00             
BETAAC      -1.39E+01                1.12E+01             
CBX/CBX2     0.00E+00                0.00E+00             
FT/FT2      -4.32E+16                4.93E+16             




**** CURRENT CONTROLLED SWITCHES


NAME         X_U3B.x_lm358.w2        X_U3B.x_lm358.w1      
MODEL        X_U3B.x_lm358.sw2       X_U3B.x_lm358.sw1     
I LOAD       4.08E-02               -5.04E-07             
V LOAD       4.08E-02               -5.04E+00             
R LOAD       1.00E+00                1.00E+07             
I CTRL       4.08E-02                4.08E-02             

NAME         X_U3B.x_lm358.w3        X_U3B.x_lm358.w4      
MODEL        X_U3B.x_lm358.sw3       X_U3B.x_lm358.sw4     
I LOAD       5.04E-07               -4.08E-02             
V LOAD       5.04E+00               -4.08E-02             
R LOAD       1.00E+07                1.00E+00             
I CTRL       4.08E-02                4.08E-02             

          JOB CONCLUDED

**** 03/19/22 20:13:33 ******* PSpice Lite (March 2016) ******* ID# 10813 ****

 ** Profile: "SCHEMATIC1-bpt3"  [ D:\Practicas\E_General\termometro_final-pspicefiles\schematic1\bpt3.sim ] 


 ****     JOB STATISTICS SUMMARY


******************************************************************************



  Total job time (using Solver 1)   =         .02
