
**** 03/18/22 19:51:49 ******* PSpice Lite (March 2016) ******* ID# 10813 ****

 ** Profile: "SCHEMATIC1-bpt3_1"  [ D:\Practicas\E_General\Termometro_5-PSpiceFiles\SCHEMATIC1\bpt3_1.sim ] 


 ****     CIRCUIT DESCRIPTION


******************************************************************************




** Creating circuit file "bpt3_1.cir" 
** WARNING: THIS AUTOMATICALLY GENERATED FILE MAY BE OVERWRITTEN BY SUBSEQUENT SIMULATIONS

*Libraries: 
* Profile Libraries :
* Local Libraries :
* From [PSPICE NETLIST] section of C:\SPB_DATA\cdssetup\OrCAD_PSpice\17.2.0\PSpice.ini file:
.lib "nomd.lib" 

*Analysis directives: 
.OP
.OPTIONS ADVCONV
.PROBE64 V(alias(*)) I(alias(*)) W(alias(*)) D(alias(*)) NOISE(alias(*)) 
.INC "..\SCHEMATIC1.net" 



**** INCLUDING SCHEMATIC1.net ****
* source TERMOMETRO_5
R_R2         N02783 N02751  1k TC=0,0 
V_V1         VCC 0 5
D_D2         0 N02783 D1N4148 
X_D1         0 N02631 LM385 
R_R5         N02631 N02839  1k TC=0,0 
X_U1A         N02631 N02783 VCC VSS N02751 LM358
R_R1         N02631 VCC  116564 TC=0,0 
X_U2B         N02751 N02839 VCC VSS N02787 LM358
V_V2         0 VSS 5
V_V3         N02631 N03011 787.35mV
R_R4         N03465 N02631  1.4M TC=0,0 
M_M1         N03011 N03465 0 0 IRF150
M_M2         0 N03465 N03465 N03465 IRF150

**** RESUMING bpt3_1.cir ****
.END

**** 03/18/22 19:51:49 ******* PSpice Lite (March 2016) ******* ID# 10813 ****

 ** Profile: "SCHEMATIC1-bpt3_1"  [ D:\Practicas\E_General\Termometro_5-PSpiceFiles\SCHEMATIC1\bpt3_1.sim ] 


 ****     Diode MODEL PARAMETERS


******************************************************************************




               D1N4148         X_D1.DF         
          IS    2.682000E-09   39.120000E-15 
           N    1.836            .9983       
         ISR    1.565000E-09                 
         IKF     .04417                      
          BV  100                            
         IBV  100.000000E-06                 
          RS     .5664         12.18         
          TT   11.540000E-09                 
         CJO    4.000000E-12                 
          VJ     .5                          
           M     .3333                       


               X_U1A.x_lm358.dx 
          IS  800.000000E-18 
          RS    1            


               X_U1A.x_lm358.dy 
          IS  800.000000E-18 
          RS    1.000000E-03 
         CJO   10.000000E-12 


               X_U2B.x_lm358.dx 
          IS  800.000000E-18 
          RS    1            


               X_U2B.x_lm358.dy 
          IS  800.000000E-18 
          RS    1.000000E-03 
         CJO   10.000000E-12 


**** 03/18/22 19:51:49 ******* PSpice Lite (March 2016) ******* ID# 10813 ****

 ** Profile: "SCHEMATIC1-bpt3_1"  [ D:\Practicas\E_General\Termometro_5-PSpiceFiles\SCHEMATIC1\bpt3_1.sim ] 


 ****     BJT MODEL PARAMETERS


******************************************************************************




               X_U1A.x_lm358.qx 
               PNP             
       LEVEL    1            
          IS  800.000000E-18 
          BF  166.7          
          NF    1            
          BR    1            
          NR    1            
         ISS    0            
          RE    0            
          RC    0            
         CJE    0            
         VJE     .75         
         CJC    0            
         VJC     .75         
         MJC     .33         
        XCJC    1            
         CJS    0            
         VJS     .75         
          KF    0            
          AF    1            
          CN    2.2          
           D     .52         


               X_U2B.x_lm358.qx 
               PNP             
       LEVEL    1            
          IS  800.000000E-18 
          BF  166.7          
          NF    1            
          BR    1            
          NR    1            
         ISS    0            
          RE    0            
          RC    0            
         CJE    0            
         VJE     .75         
         CJC    0            
         VJC     .75         
         MJC     .33         
        XCJC    1            
         CJS    0            
         VJS     .75         
          KF    0            
          AF    1            
          CN    2.2          
           D     .52         


**** 03/18/22 19:51:49 ******* PSpice Lite (March 2016) ******* ID# 10813 ****

 ** Profile: "SCHEMATIC1-bpt3_1"  [ D:\Practicas\E_General\Termometro_5-PSpiceFiles\SCHEMATIC1\bpt3_1.sim ] 


 ****     MOSFET MODEL PARAMETERS


******************************************************************************




               IRF150          
               NMOS            
       LEVEL    3            
           L    2.000000E-06 
           W     .3          
         VTO    2.831        
          KP   20.530000E-06 
       GAMMA    0            
         PHI     .6          
      LAMBDA    0            
          RD    1.031000E-03 
          RS    1.624000E-03 
          RG   13.89         
         RDS  444.400000E+03 
          IS  194.000000E-18 
          JS    0            
          PB     .8          
        PBSW     .8          
         CBD    3.229000E-09 
          CJ    0            
        CJSW    0            
          TT  288.000000E-09 
        CGSO    9.027000E-09 
        CGDO    1.679000E-09 
        CGBO    0            
         TOX  100.000000E-09 
          XJ    0            
       UCRIT   10.000000E+03 
       DELTA    0            
         ETA    0            
      DIOMOD    1            
         VFB    0            
        LETA    0            
        WETA    0            
          U0    0            
        TEMP    0            
         VDD    5            
       XPART    0            


**** 03/18/22 19:51:49 ******* PSpice Lite (March 2016) ******* ID# 10813 ****

 ** Profile: "SCHEMATIC1-bpt3_1"  [ D:\Practicas\E_General\Termometro_5-PSpiceFiles\SCHEMATIC1\bpt3_1.sim ] 


 ****     Current Controlled Switch MODEL PARAMETERS


******************************************************************************




               X_U1A.x_lm358.sw2 
         RON    1            
        ROFF   10.000000E+06 
         ION    0            
        IOFF   -1.000000E-06 


               X_U1A.x_lm358.sw1 
         RON    1            
        ROFF   10.000000E+06 
         ION   -1.000000E-06 
        IOFF    0            


               X_U1A.x_lm358.sw3 
         RON    1            
        ROFF   10.000000E+06 
         ION   -1.000000E-06 
        IOFF    0            


               X_U1A.x_lm358.sw4 
         RON    1            
        ROFF   10.000000E+06 
         ION    0            
        IOFF   -1.000000E-06 


               X_U2B.x_lm358.sw2 
         RON    1            
        ROFF   10.000000E+06 
         ION    0            
        IOFF   -1.000000E-06 


               X_U2B.x_lm358.sw1 
         RON    1            
        ROFF   10.000000E+06 
         ION   -1.000000E-06 
        IOFF    0            


               X_U2B.x_lm358.sw3 
         RON    1            
        ROFF   10.000000E+06 
         ION   -1.000000E-06 
        IOFF    0            


               X_U2B.x_lm358.sw4 
         RON    1            
        ROFF   10.000000E+06 
         ION    0            
        IOFF   -1.000000E-06 


**** 03/18/22 19:51:49 ******* PSpice Lite (March 2016) ******* ID# 10813 ****

 ** Profile: "SCHEMATIC1-bpt3_1"  [ D:\Practicas\E_General\Termometro_5-PSpiceFiles\SCHEMATIC1\bpt3_1.sim ] 


 ****     SMALL SIGNAL BIAS SOLUTION       TEMPERATURE =   27.000 DEG C


******************************************************************************



 NODE   VOLTAGE     NODE   VOLTAGE     NODE   VOLTAGE     NODE   VOLTAGE


(  VCC)    5.0000  (  VSS)   -5.0000  (N02631)     .6693 (N02751)     .6689     

(N02783)     .6689 (N02787)   -4.9300 (N02839)     .6694 (N03011)    -.1180     

(N03465)     .6693 (X_D1.1)-57.90E-15 (X_D1.2)    -.5677 (X_D1.3)    1.2370     

(X_U1A.x_lm358.6)-126.1E-06           (X_U1A.x_lm358.7)     .6689               

(X_U1A.x_lm358.8)     .6689           (X_U1A.x_lm358.9)    0.0000               

(X_U1A.x_lm358.a)    5.0000           (X_U1A.x_lm358.b)-850.2E-09               

(X_U2B.x_lm358.6)     .0169           (X_U2B.x_lm358.7)   -5.0993               

(X_U2B.x_lm358.8)   -5.0993           (X_U2B.x_lm358.9)    0.0000               

(X_U2B.x_lm358.a)     .0034           (X_U2B.x_lm358.b)   -4.9966               

(X_U1A.x_lm358.10)    1.2767          (X_U1A.x_lm358.11)   -4.9603              

(X_U1A.x_lm358.12)   -4.9607          (X_U1A.x_lm358.13)    1.2628              

(X_U1A.x_lm358.14)    1.2629          (X_U1A.x_lm358.53)    3.5000              

(X_U1A.x_lm358.54)   -4.1780          (X_U1A.x_lm358.90)-85.15E-06              

(X_U1A.x_lm358.91)   40.0000          (X_U1A.x_lm358.92)  -40.0000              

(X_U1A.x_lm358.99)    0.0000          (X_U2B.x_lm358.10)    1.2767              

(X_U2B.x_lm358.11)   -4.9607          (X_U2B.x_lm358.12)   -4.9602              

(X_U2B.x_lm358.13)    1.2629          (X_U2B.x_lm358.14)    1.2628              

(X_U2B.x_lm358.53)    3.5000          (X_U2B.x_lm358.54)   -4.1780              

(X_U2B.x_lm358.90)   -3.3860          (X_U2B.x_lm358.91)   40.0000              

(X_U2B.x_lm358.92)  -40.0000          (X_U2B.x_lm358.99)    0.0000          




    VOLTAGE SOURCE CURRENTS
    NAME         CURRENT

    V_V1        -2.271E-03
    V_V2        -2.233E-03
    V_V3        -2.655E-07
    X_U1A.x_lm358.vb  -1.261E-09
    X_U1A.x_lm358.vc   2.832E-12
    X_U1A.x_lm358.ve   5.420E-12
    X_U1A.x_lm358.vlim  -8.515E-08
    X_U1A.x_lm358.vlp  -4.000E-11
    X_U1A.x_lm358.vln  -4.000E-11
    X_U2B.x_lm358.vb   1.693E-07
    X_U2B.x_lm358.vc   8.431E-12
    X_U2B.x_lm358.ve  -3.386E-03
    X_U2B.x_lm358.vlim  -3.386E-03
    X_U2B.x_lm358.vlp  -4.339E-11
    X_U2B.x_lm358.vln  -3.662E-11

    TOTAL POWER DISSIPATION   2.53E-02  WATTS


**** 03/18/22 19:51:49 ******* PSpice Lite (March 2016) ******* ID# 10813 ****

 ** Profile: "SCHEMATIC1-bpt3_1"  [ D:\Practicas\E_General\Termometro_5-PSpiceFiles\SCHEMATIC1\bpt3_1.sim ] 


 ****     OPERATING POINT INFORMATION      TEMPERATURE =   27.000 DEG C


******************************************************************************






**** VOLTAGE-CONTROLLED CURRENT SOURCES


NAME         X_D1.GREV   X_D1.GZ     X_U1A.x_lm358.ga      
I-SOURCE    -2.356E-06   0.000E+00   7.736E-08            

NAME         X_U1A.x_lm358.gcm       X_U2B.x_lm358.ga      
I-SOURCE     7.610E-08              -9.324E-08            

NAME         X_U2B.x_lm358.gcm     
I-SOURCE     7.610E-08            


**** VOLTAGE-CONTROLLED VOLTAGE SOURCES


NAME         X_D1.EBV    X_U1A.x_lm358.egnd      X_U2B.x_lm358.egnd    
V-SOURCE     1.237E+00   0.000E+00               0.000E+00            
I-SOURCE    -5.839E-13   1.815E-07               3.386E-03            


**** CURRENT-CONTROLLED CURRENT SOURCES


NAME         X_U1A.x_lm358.fb        X_U1A.x_lm358.fpos    
I-SOURCE    -2.676E-02              -8.515E-08            

NAME         X_U1A.x_lm358.fneg      X_U2B.x_lm358.fb      
I-SOURCE     8.515E-08               2.074E-01            

NAME         X_U2B.x_lm358.fpos      X_U2B.x_lm358.fneg    
I-SOURCE    -3.386E-03               3.386E-03            


**** CURRENT-CONTROLLED VOLTAGE SOURCES


NAME         X_U1A.x_lm358.hlim      X_U2B.x_lm358.hlim    
V-SOURCE    -8.515E-05              -3.386E+00            
I-SOURCE     1.703E-16               6.772E-12            


**** DIODES


NAME         D_D2        X_D1.DFWD   X_U1A.x_lm358.dc      
MODEL        D1N4148     X_D1.DF     X_U1A.x_lm358.dy      
ID          -4.76E-09   -7.08E-13   -2.83E-12             
VD          -6.69E-01   -6.69E-01   -2.83E+00             
REQ          3.38E+09    1.00E+12    1.00E+12             
CAP          3.01E-12    0.00E+00    5.11E-12             

NAME         X_U1A.x_lm358.de        X_U1A.x_lm358.dlp     
MODEL        X_U1A.x_lm358.dy        X_U1A.x_lm358.dx      
ID          -4.85E-12               -4.00E-11             
VD          -4.85E+00               -4.00E+01             
REQ          1.00E+12                1.00E+12             
CAP          4.14E-12                0.00E+00             

NAME         X_U1A.x_lm358.dln       X_U1A.x_lm358.dp      
MODEL        X_U1A.x_lm358.dx        X_U1A.x_lm358.dx      
ID          -4.00E-11               -1.00E-11             
VD          -4.00E+01               -1.00E+01             
REQ          1.00E+12                1.00E+12             
CAP          0.00E+00                0.00E+00             

NAME         X_U2B.x_lm358.dc        X_U2B.x_lm358.de      
MODEL        X_U2B.x_lm358.dy        X_U2B.x_lm358.dy      
ID          -8.43E-12                3.39E-03             
VD          -8.43E+00                7.52E-01             
REQ          1.00E+12                7.64E+00             
CAP          3.26E-12                1.77E-11             

NAME         X_U2B.x_lm358.dlp       X_U2B.x_lm358.dln     
MODEL        X_U2B.x_lm358.dx        X_U2B.x_lm358.dx      
ID          -4.34E-11               -3.66E-11             
VD          -4.34E+01               -3.66E+01             
REQ          1.00E+12                1.00E+12             
CAP          0.00E+00                0.00E+00             

NAME         X_U2B.x_lm358.dp      
MODEL        X_U2B.x_lm358.dx      
ID          -1.00E-11             
VD          -1.00E+01             
REQ          1.00E+12             
CAP          0.00E+00             


**** BIPOLAR JUNCTION TRANSISTORS


NAME         X_U1A.x_lm358.q1        X_U1A.x_lm358.q2      
MODEL        X_U1A.x_lm358.qx        X_U1A.x_lm358.qx      
IB          -4.49E-08               -4.45E-08             
IC          -7.49E-06               -7.41E-06             
VBE         -5.94E-01               -5.94E-01             
VBC          5.63E+00                5.63E+00             
VCE         -6.22E+00               -6.22E+00             
BETADC       1.67E+02                1.67E+02             
GM           2.90E-04                2.87E-04             
RPI          5.76E+05                5.82E+05             
RX           0.00E+00                0.00E+00             
RO           1.00E+12                1.00E+12             
CBE          0.00E+00                0.00E+00             
CBC          0.00E+00                0.00E+00             
CJS          0.00E+00                0.00E+00             
BETAAC       1.67E+02                1.67E+02             
CBX/CBX2     0.00E+00                0.00E+00             
FT/FT2       4.61E+15                4.56E+15             



NAME         X_U2B.x_lm358.q1        X_U2B.x_lm358.q2      
MODEL        X_U2B.x_lm358.qx        X_U2B.x_lm358.qx      
IB          -4.44E-08               -4.50E-08             
IC          -7.41E-06               -7.50E-06             
VBE         -5.94E-01               -5.94E-01             
VBC          5.63E+00                5.63E+00             
VCE         -6.22E+00               -6.22E+00             
BETADC       1.67E+02                1.67E+02             
GM           2.86E-04                2.90E-04             
RPI          5.82E+05                5.75E+05             
RX           0.00E+00                0.00E+00             
RO           1.00E+12                1.00E+12             
CBE          0.00E+00                0.00E+00             
CBC          0.00E+00                0.00E+00             
CJS          0.00E+00                0.00E+00             
BETAAC       1.67E+02                1.67E+02             
CBX/CBX2     0.00E+00                0.00E+00             
FT/FT2       4.56E+15                4.61E+15             




**** MOSFETS


NAME         M_M1        M_M2      
MODEL        IRF150      IRF150    
ID          -2.66E-07   -3.52E-05 
VGS          6.69E-01    0.00E+00 
VDS         -1.18E-01   -6.69E-01 
VBS          0.00E+00    0.00E+00 
VTH          2.83E+00    2.83E+00 
VDSAT        0.00E+00    0.00E+00 
Lin0/Sat1   -1.00E+00   -1.00E+00 
if          -1.00E+00   -1.00E+00 
ir          -1.00E+00   -1.00E+00 
TAU         -1.00E+00   -1.00E+00 
GM           0.00E+00    0.00E+00 
GDS          2.25E-06    2.25E-06 
GMB          0.00E+00    0.00E+00 
CBD          3.50E-09    6.48E-09 
CBS          2.90E-19    2.90E-19 
CGSOV        2.71E-09    2.71E-09 
CGDOV        5.04E-10    5.04E-10 
CGBOV        0.00E+00    0.00E+00 
CGS          0.00E+00    0.00E+00 
CGD          0.00E+00    0.00E+00 
CGB          2.07E-10    2.07E-10 


**** CURRENT CONTROLLED SWITCHES


NAME         X_U1A.x_lm358.w2        X_U1A.x_lm358.w1      
MODEL        X_U1A.x_lm358.sw2       X_U1A.x_lm358.sw1     
I LOAD       6.11E-07                6.96E-07             
V LOAD       8.50E-07                5.00E+00             
R LOAD       1.39E+00                7.18E+06             
I CTRL      -8.51E-08               -8.51E-08             

NAME         X_U1A.x_lm358.w3        X_U1A.x_lm358.w4      
MODEL        X_U1A.x_lm358.sw3       X_U1A.x_lm358.sw4     
I LOAD      -6.96E-07               -6.11E-07             
V LOAD      -5.00E+00               -8.50E-07             
R LOAD       7.18E+06                1.39E+00             
I CTRL      -8.51E-08               -8.51E-08             

NAME         X_U2B.x_lm358.w2        X_U2B.x_lm358.w1      
MODEL        X_U2B.x_lm358.sw2       X_U2B.x_lm358.sw1     
I LOAD       5.00E-07                3.39E-03             
V LOAD       5.00E+00                3.39E-03             
R LOAD       1.00E+07                1.00E+00             
I CTRL      -3.39E-03               -3.39E-03             

NAME         X_U2B.x_lm358.w3        X_U2B.x_lm358.w4      
MODEL        X_U2B.x_lm358.sw3       X_U2B.x_lm358.sw4     
I LOAD      -3.39E-03               -5.00E-07             
V LOAD      -3.39E-03               -5.00E+00             
R LOAD       1.00E+00                1.00E+07             
I CTRL      -3.39E-03               -3.39E-03             

          JOB CONCLUDED

**** 03/18/22 19:51:49 ******* PSpice Lite (March 2016) ******* ID# 10813 ****

 ** Profile: "SCHEMATIC1-bpt3_1"  [ D:\Practicas\E_General\Termometro_5-PSpiceFiles\SCHEMATIC1\bpt3_1.sim ] 


 ****     JOB STATISTICS SUMMARY


******************************************************************************



  Total job time (using Solver 1)   =         .05
