
**** 03/18/22 13:59:08 ******* PSpice Lite (March 2016) ******* ID# 10813 ****

 ** Profile: "SCHEMATIC1-bias_termometro"  [ D:\Practicas\E_General\termometro_0-PSpiceFiles\SCHEMATIC1\bias_termometro.sim ] 


 ****     CIRCUIT DESCRIPTION


******************************************************************************




** Creating circuit file "bias_termometro.cir" 
** WARNING: THIS AUTOMATICALLY GENERATED FILE MAY BE OVERWRITTEN BY SUBSEQUENT SIMULATIONS

*Libraries: 
* Profile Libraries :
* Local Libraries :
* From [PSPICE NETLIST] section of C:\SPB_DATA\cdssetup\OrCAD_PSpice\17.2.0\PSpice.ini file:
.lib "nomd.lib" 

*Analysis directives: 
.TEMP -70
.OPTIONS ADVCONV
.PROBE64 V(alias(*)) I(alias(*)) W(alias(*)) D(alias(*)) NOISE(alias(*)) 
.INC "..\SCHEMATIC1.net" 



**** INCLUDING SCHEMATIC1.net ****
* source TERMOMETRO_0
X_U1         N00280 0 AD1580/AD
R_R1         N00280 VCC  {n} TC=0,0 
V_V1         VCC 0 5
V_V2         VSS 0 5
X_U2         N00996 0 AD1580/AD
R_R2         N00992 VCC  68k TC=0,0 
R_R3         N00996 N00992  6.8k TC=0,0 
D_D1         0 N01078 D1N4148 
V_V3         N01078 0 1.226
X_U3         N01352 0 AD1580/AD
R_R4         N01326 V+  68k TC=0,0 
R_R5         N01352 N01326  6.8k TC=0,0 
X_U4A         N01352 N02032 V+ V- N02106 LM358
V_V4         V+ 0 5
V_V5         V- 0 5
D_D2         0 N02032 D1N4148 
R_R6         N02032 N02945  1k TC=0,0 
R_R7         N02032 N02945  1k TC=0,0 
Q_Q1         V+ N02106 N02945 Q2N3904
R_R9         N02032 N02949  1k TC=0,0 
D_D3         0 N02032 D1N4148 
Q_Q2         V+ N02106 N02949 Q2N3904
R_R8         N02032 N02949  1k TC=0,0 
X_U4B         N02945 N02949 V+ V- N03178 LM358
.PARAM  n=1

**** RESUMING bias_termometro.cir ****
.END

**** 03/18/22 13:59:08 ******* PSpice Lite (March 2016) ******* ID# 10813 ****

 ** Profile: "SCHEMATIC1-bias_termometro"  [ D:\Practicas\E_General\termometro_0-PSpiceFiles\SCHEMATIC1\bias_termometro.sim ] 


 ****     Diode MODEL PARAMETERS


******************************************************************************




               D1N4148         X_U4A.x_lm358.dx 
          IS    2.682000E-09  800.000000E-18 
           N    1.836                        
         ISR    1.565000E-09                 
         IKF     .04417                      
          BV  100                            
         IBV  100.000000E-06                 
          RS     .5664          1            
          TT   11.540000E-09                 
         CJO    4.000000E-12                 
          VJ     .5                          
           M     .3333                       


               X_U4A.x_lm358.dy 
          IS  800.000000E-18 
          RS    1.000000E-03 
         CJO   10.000000E-12 


               X_U4B.x_lm358.dx 
          IS  800.000000E-18 
          RS    1            


               X_U4B.x_lm358.dy 
          IS  800.000000E-18 
          RS    1.000000E-03 
         CJO   10.000000E-12 


**** 03/18/22 13:59:08 ******* PSpice Lite (March 2016) ******* ID# 10813 ****

 ** Profile: "SCHEMATIC1-bias_termometro"  [ D:\Practicas\E_General\termometro_0-PSpiceFiles\SCHEMATIC1\bias_termometro.sim ] 


 ****     BJT MODEL PARAMETERS


******************************************************************************




               Q2N3904         X_U1.qn1        X_U1.qn2        X_U1.qp1        
               NPN             NPN             NPN             PNP             
       LEVEL    1               1               1               1            
          IS    6.734000E-15  100.000000E-18  100.000000E-18  100.000000E-18 
          BF  416.4           100             100              50.000000E+03 
          NF    1               1               1               1            
         VAF   74.03          100             100             100            
         IKF     .06678                                                      
         ISE    6.734000E-15                                                 
          NE    1.259                                                        
          BR     .7371          1               1               1            
          NR    1               1               1               1            
         ISS    0               0               0               0            
          RB   10                                                            
          RE    0               0               0               0            
          RC    1               0               0               0            
         CJE    4.493000E-12    0               0               0            
         VJE     .75             .75             .75             .75         
         MJE     .2593                                                       
         CJC    3.638000E-12    0               0               0            
         VJC     .75             .75             .75             .75         
         MJC     .3085           .33             .33             .33         
        XCJC    1               1               1               1            
         CJS    0               0               0               0            
         VJS     .75             .75             .75             .75         
          TF  301.200000E-12                                                 
         XTF    2                                                            
         VTF    4                                                            
         ITF     .4                                                          
          TR  239.500000E-09                                                 
         XTB    1.5                                                          
          KF    0               0               0               0            
          AF    1               1               1               1            
          CN    2.42            2.42            2.42            2.2          
           D     .87             .87             .87             .52         


               X_U2.qn1        X_U2.qn2        X_U2.qp1        X_U3.qn1        
               NPN             NPN             PNP             NPN             
       LEVEL    1               1               1               1            
          IS  100.000000E-18  100.000000E-18  100.000000E-18  100.000000E-18 
          BF  100             100              50.000000E+03  100            
          NF    1               1               1               1            
         VAF  100             100             100             100            
          BR    1               1               1               1            
          NR    1               1               1               1            
         ISS    0               0               0               0            
          RE    0               0               0               0            
          RC    0               0               0               0            
         CJE    0               0               0               0            
         VJE     .75             .75             .75             .75         
         CJC    0               0               0               0            
         VJC     .75             .75             .75             .75         
         MJC     .33             .33             .33             .33         
        XCJC    1               1               1               1            
         CJS    0               0               0               0            
         VJS     .75             .75             .75             .75         
          KF    0               0               0               0            
          AF    1               1               1               1            
          CN    2.42            2.42            2.2             2.42         
           D     .87             .87             .52             .87         


               X_U3.qn2        X_U3.qp1        
               NPN             PNP             
       LEVEL    1               1            
          IS  100.000000E-18  100.000000E-18 
          BF  100              50.000000E+03 
          NF    1               1            
         VAF  100             100            
          BR    1               1            
          NR    1               1            
         ISS    0               0            
          RE    0               0            
          RC    0               0            
         CJE    0               0            
         VJE     .75             .75         
         CJC    0               0            
         VJC     .75             .75         
         MJC     .33             .33         
        XCJC    1               1            
         CJS    0               0            
         VJS     .75             .75         
          KF    0               0            
          AF    1               1            
          CN    2.42            2.2          
           D     .87             .52         


               X_U4A.x_lm358.qx 
               PNP             
       LEVEL    1            
          IS  800.000000E-18 
          BF  166.7          
          NF    1            
          BR    1            
          NR    1            
         ISS    0            
          RE    0            
          RC    0            
         CJE    0            
         VJE     .75         
         CJC    0            
         VJC     .75         
         MJC     .33         
        XCJC    1            
         CJS    0            
         VJS     .75         
          KF    0            
          AF    1            
          CN    2.2          
           D     .52         


               X_U4B.x_lm358.qx 
               PNP             
       LEVEL    1            
          IS  800.000000E-18 
          BF  166.7          
          NF    1            
          BR    1            
          NR    1            
         ISS    0            
          RE    0            
          RC    0            
         CJE    0            
         VJE     .75         
         CJC    0            
         VJC     .75         
         MJC     .33         
        XCJC    1            
         CJS    0            
         VJS     .75         
          KF    0            
          AF    1            
          CN    2.2          
           D     .52         


**** 03/18/22 13:59:08 ******* PSpice Lite (March 2016) ******* ID# 10813 ****

 ** Profile: "SCHEMATIC1-bias_termometro"  [ D:\Practicas\E_General\termometro_0-PSpiceFiles\SCHEMATIC1\bias_termometro.sim ] 


 ****     Current Controlled Switch MODEL PARAMETERS


******************************************************************************




               X_U4A.x_lm358.sw2 
         RON    1            
        ROFF   10.000000E+06 
         ION    0            
        IOFF   -1.000000E-06 


               X_U4A.x_lm358.sw1 
         RON    1            
        ROFF   10.000000E+06 
         ION   -1.000000E-06 
        IOFF    0            


               X_U4A.x_lm358.sw3 
         RON    1            
        ROFF   10.000000E+06 
         ION   -1.000000E-06 
        IOFF    0            


               X_U4A.x_lm358.sw4 
         RON    1            
        ROFF   10.000000E+06 
         ION    0            
        IOFF   -1.000000E-06 


               X_U4B.x_lm358.sw2 
         RON    1            
        ROFF   10.000000E+06 
         ION    0            
        IOFF   -1.000000E-06 


               X_U4B.x_lm358.sw1 
         RON    1            
        ROFF   10.000000E+06 
         ION   -1.000000E-06 
        IOFF    0            


               X_U4B.x_lm358.sw3 
         RON    1            
        ROFF   10.000000E+06 
         ION   -1.000000E-06 
        IOFF    0            


               X_U4B.x_lm358.sw4 
         RON    1            
        ROFF   10.000000E+06 
         ION    0            
        IOFF   -1.000000E-06 


**** 03/18/22 13:59:08 ******* PSpice Lite (March 2016) ******* ID# 10813 ****

 ** Profile: "SCHEMATIC1-bias_termometro"  [ D:\Practicas\E_General\termometro_0-PSpiceFiles\SCHEMATIC1\bias_termometro.sim ] 


 ****     TEMPERATURE-ADJUSTED VALUES      TEMPERATURE =  -70.000 DEG C


******************************************************************************




 **** DIODE MODEL PARAMETERS

                   D1N4148    X_U4A.x_lm358.dy
                                             X_U4A.x_lm358.dx

         IS        2.015E-14      3.127E-25      3.127E-25  
         VJ        7.421E-01      1.081E+00      1.081E+00  
        CJO        3.303E-12      9.403E-12      0.000E+00  
         RS        5.664E-01      1.000E-03      1.000E+00  
        IKF        4.417E-02      0.000E+00      0.000E+00  
         BV        1.000E+02  

               X_U4B.x_lm358.dy
                              X_U4B.x_lm358.dx

         IS        3.127E-25      3.127E-25  
         VJ        1.081E+00      1.081E+00  
        CJO        9.403E-12      0.000E+00  
         RS        1.000E-03      1.000E+00  
        IKF        0.000E+00      0.000E+00  
         BV                   


 **** BJT MODEL PARAMETERS

                   Q2N3904       X_U1.qn1       X_U1.qn2    

         BF        2.319E+02      1.000E+02      1.000E+02  
        ISE        4.073E-22      0.000E+00      0.000E+00  
        VJE        9.113E-01      9.113E-01      9.113E-01  
        CJE        4.197E-12      0.000E+00      0.000E+00  
         RE        0.000E+00      0.000E+00      0.000E+00  
         RB        1.000E+01      0.000E+00      0.000E+00  
         BR        4.104E-01      1.000E+00      1.000E+00  
        ISC        0.000E+00      0.000E+00      0.000E+00  
        VJC        9.113E-01      9.113E-01      9.113E-01  
        CJC        3.353E-12      0.000E+00      0.000E+00  
         RC        1.000E+00      0.000E+00      0.000E+00  
        RBM        1.000E+01      0.000E+00      0.000E+00  
         IS        2.632E-24      3.908E-26      3.908E-26  
        ISS        0.000E+00      0.000E+00      0.000E+00  
        VJS        9.113E-01      9.113E-01      9.113E-01  
        CJS        0.000E+00      0.000E+00      0.000E+00  
      GAMMA        1.000E-11      1.000E-11      1.000E-11  
        RCO        0.000E+00      0.000E+00      0.000E+00  
         VO        1.000E+01      1.000E+01      1.000E+01  

                  X_U1.qp1       X_U2.qn1       X_U2.qn2    

         BF        5.000E+04      1.000E+02      1.000E+02  
        ISE        0.000E+00      0.000E+00      0.000E+00  
        VJE        9.113E-01      9.113E-01      9.113E-01  
        CJE        0.000E+00      0.000E+00      0.000E+00  
         RE        0.000E+00      0.000E+00      0.000E+00  
         RB        0.000E+00      0.000E+00      0.000E+00  
         BR        1.000E+00      1.000E+00      1.000E+00  
        ISC        0.000E+00      0.000E+00      0.000E+00  
        VJC        9.113E-01      9.113E-01      9.113E-01  
        CJC        0.000E+00      0.000E+00      0.000E+00  
         RC        0.000E+00      0.000E+00      0.000E+00  
        RBM        0.000E+00      0.000E+00      0.000E+00  
         IS        3.908E-26      3.908E-26      3.908E-26  
        ISS        0.000E+00      0.000E+00      0.000E+00  
        VJS        9.113E-01      9.113E-01      9.113E-01  
        CJS        0.000E+00      0.000E+00      0.000E+00  
      GAMMA        1.000E-11      1.000E-11      1.000E-11  
        RCO        0.000E+00      0.000E+00      0.000E+00  
         VO        1.000E+01      1.000E+01      1.000E+01  

                  X_U2.qp1       X_U3.qn1       X_U3.qn2    

         BF        5.000E+04      1.000E+02      1.000E+02  
        ISE        0.000E+00      0.000E+00      0.000E+00  
        VJE        9.113E-01      9.113E-01      9.113E-01  
        CJE        0.000E+00      0.000E+00      0.000E+00  
         RE        0.000E+00      0.000E+00      0.000E+00  
         RB        0.000E+00      0.000E+00      0.000E+00  
         BR        1.000E+00      1.000E+00      1.000E+00  
        ISC        0.000E+00      0.000E+00      0.000E+00  
        VJC        9.113E-01      9.113E-01      9.113E-01  
        CJC        0.000E+00      0.000E+00      0.000E+00  
         RC        0.000E+00      0.000E+00      0.000E+00  
        RBM        0.000E+00      0.000E+00      0.000E+00  
         IS        3.908E-26      3.908E-26      3.908E-26  
        ISS        0.000E+00      0.000E+00      0.000E+00  
        VJS        9.113E-01      9.113E-01      9.113E-01  
        CJS        0.000E+00      0.000E+00      0.000E+00  
      GAMMA        1.000E-11      1.000E-11      1.000E-11  
        RCO        0.000E+00      0.000E+00      0.000E+00  
         VO        1.000E+01      1.000E+01      1.000E+01  

                  X_U3.qp1    X_U4A.x_lm358.qx
                                             X_U4B.x_lm358.qx

         BF        5.000E+04      1.667E+02      1.667E+02  
        ISE        0.000E+00      0.000E+00      0.000E+00  
        VJE        9.113E-01      9.113E-01      9.113E-01  
        CJE        0.000E+00      0.000E+00      0.000E+00  
         RE        0.000E+00      0.000E+00      0.000E+00  
         RB        0.000E+00      0.000E+00      0.000E+00  
         BR        1.000E+00      1.000E+00      1.000E+00  
        ISC        0.000E+00      0.000E+00      0.000E+00  
        VJC        9.113E-01      9.113E-01      9.113E-01  
        CJC        0.000E+00      0.000E+00      0.000E+00  
         RC        0.000E+00      0.000E+00      0.000E+00  
        RBM        0.000E+00      0.000E+00      0.000E+00  
         IS        3.908E-26      3.127E-25      3.127E-25  
        ISS        0.000E+00      0.000E+00      0.000E+00  
        VJS        9.113E-01      9.113E-01      9.113E-01  
        CJS        0.000E+00      0.000E+00      0.000E+00  
      GAMMA        1.000E-11      1.000E-11      1.000E-11  
        RCO        0.000E+00      0.000E+00      0.000E+00  
         VO        1.000E+01      1.000E+01      1.000E+01  


**** 03/18/22 13:59:08 ******* PSpice Lite (March 2016) ******* ID# 10813 ****

 ** Profile: "SCHEMATIC1-bias_termometro"  [ D:\Practicas\E_General\termometro_0-PSpiceFiles\SCHEMATIC1\bias_termometro.sim ] 


 ****     SMALL SIGNAL BIAS SOLUTION       TEMPERATURE =  -70.000 DEG C


******************************************************************************



 NODE   VOLTAGE     NODE   VOLTAGE     NODE   VOLTAGE     NODE   VOLTAGE


(   V+)    5.0000  (   V-)    5.0000  (  VCC)    5.0000  (  VSS)    5.0000      

(N00280)    1.5469 (N00992)    1.5471 (N00996)    1.2018 (N01078)    1.2260     

(N01326)    1.5471 (N01352)    1.2019 (N02032)   99.8540 (N02106)    4.6610     

(N02945)   99.8540 (N02949)   99.8540 (N03178)    4.6610 (X_U1.2)    1.2679     

(X_U1.3)     .8351 (X_U1.4)    1.1787 (X_U1.5)     .7794 (X_U1.6)     .5012     

(X_U1.7)     .7794 (X_U2.2)    1.0403 (X_U2.3)     .8230 (X_U2.4)     .8230     

(X_U2.5)     .7950 (X_U2.6)     .3599 (X_U2.7)     .7950 (X_U3.2)    1.0404     

(X_U3.3)     .8230 (X_U3.4)     .8231 (X_U3.5)     .7950 (X_U3.6)     .3076     

(X_U3.7)     .7950 (X_U4A.x_lm358.6)  -55.4600                                  

(X_U4A.x_lm358.7)    6.7039           (X_U4A.x_lm358.8)    6.7039               

(X_U4A.x_lm358.9)    0.0000           (X_U4A.x_lm358.a)    4.9591               

(X_U4A.x_lm358.b)    -.0409           (X_U4B.x_lm358.6)     .5701               

(X_U4B.x_lm358.7)    2.6225           (X_U4B.x_lm358.8)    2.6225               

(X_U4B.x_lm358.9)    0.0000           (X_U4B.x_lm358.a)     .0408               

(X_U4B.x_lm358.b)    5.0408           (X_U4A.x_lm358.10)    2.0873              

(X_U4A.x_lm358.11)    5.0000          (X_U4A.x_lm358.12)    2.0587              

(X_U4A.x_lm358.13)    2.0873          (X_U4A.x_lm358.14)    2.0591              

