
**** 03/18/22 09:45:34 ******* PSpice Lite (March 2016) ******* ID# 10813 ****

 ** Profile: "SCHEMATIC1-bandgap1"  [ D:\Practicas\E_General\termometro_0-PSpiceFiles\SCHEMATIC1\bandgap1.sim ] 


 ****     CIRCUIT DESCRIPTION


******************************************************************************




** Creating circuit file "bandgap1.cir" 
** WARNING: THIS AUTOMATICALLY GENERATED FILE MAY BE OVERWRITTEN BY SUBSEQUENT SIMULATIONS

*Libraries: 
* Profile Libraries :
* Local Libraries :
* From [PSPICE NETLIST] section of C:\SPB_DATA\cdssetup\OrCAD_PSpice\17.2.0\PSpice.ini file:
.lib "nomd.lib" 

*Analysis directives: 
.OPTIONS ADVCONV
.PROBE64 V(alias(*)) I(alias(*)) W(alias(*)) D(alias(*)) NOISE(alias(*)) 
.INC "..\SCHEMATIC1.net" 



**** INCLUDING SCHEMATIC1.net ****
* source TERMOMETRO_0
X_U1         N00280 0 AD1580/AD
R_R1         N00280 VCC  {n} TC=0,0 
V_V1         VCC 0 5
V_V2         VSS 0 5
X_U2         N00996 0 AD1580/AD
R_R2         N00992 VCC  68k TC=0,0 
R_R3         N00996 N00992  6.8k TC=0,0 
.PARAM  n=1

**** RESUMING bandgap1.cir ****
.END

**** 03/18/22 09:45:34 ******* PSpice Lite (March 2016) ******* ID# 10813 ****

 ** Profile: "SCHEMATIC1-bandgap1"  [ D:\Practicas\E_General\termometro_0-PSpiceFiles\SCHEMATIC1\bandgap1.sim ] 


 ****     BJT MODEL PARAMETERS


******************************************************************************




               X_U1.qn1        X_U1.qn2        X_U1.qp1        X_U2.qn1        
               NPN             NPN             PNP             NPN             
       LEVEL    1               1               1               1            
          IS  100.000000E-18  100.000000E-18  100.000000E-18  100.000000E-18 
          BF  100             100              50.000000E+03  100            
          NF    1               1               1               1            
         VAF  100             100             100             100            
          BR    1               1               1               1            
          NR    1               1               1               1            
         ISS    0               0               0               0            
          RE    0               0               0               0            
          RC    0               0               0               0            
         CJE    0               0               0               0            
         VJE     .75             .75             .75             .75         
         CJC    0               0               0               0            
         VJC     .75             .75             .75             .75         
         MJC     .33             .33             .33             .33         
        XCJC    1               1               1               1            
         CJS    0               0               0               0            
         VJS     .75             .75             .75             .75         
          KF    0               0               0               0            
          AF    1               1               1               1            
          CN    2.42            2.42            2.2             2.42         
           D     .87             .87             .52             .87         


               X_U2.qn2        X_U2.qp1        
               NPN             PNP             
       LEVEL    1               1            
          IS  100.000000E-18  100.000000E-18 
          BF  100              50.000000E+03 
          NF    1               1            
         VAF  100             100            
          BR    1               1            
          NR    1               1            
         ISS    0               0            
          RE    0               0            
          RC    0               0            
         CJE    0               0            
         VJE     .75             .75         
         CJC    0               0            
         VJC     .75             .75         
         MJC     .33             .33         
        XCJC    1               1            
         CJS    0               0            
         VJS     .75             .75         
          KF    0               0            
          AF    1               1            
          CN    2.42            2.2          
           D     .87             .52         


**** 03/18/22 09:45:34 ******* PSpice Lite (March 2016) ******* ID# 10813 ****

 ** Profile: "SCHEMATIC1-bandgap1"  [ D:\Practicas\E_General\termometro_0-PSpiceFiles\SCHEMATIC1\bandgap1.sim ] 


 ****     SMALL SIGNAL BIAS SOLUTION       TEMPERATURE =   27.000 DEG C


******************************************************************************



 NODE   VOLTAGE     NODE   VOLTAGE     NODE   VOLTAGE     NODE   VOLTAGE


(  VCC)    5.0000  (  VSS)    5.0000  (N00280)    1.5606 (N00992)    1.5687     

(N00996)    1.2255 (X_U1.2)    1.2091 (X_U1.3)     .6788 (X_U1.4)    1.0208     

(X_U1.5)     .6105 (X_U1.6)     .5760 (X_U1.7)     .6105 (X_U2.2)     .9870     

(X_U2.3)     .6658 (X_U2.4)     .6658 (X_U2.5)     .6245 (X_U2.6)     .5526     

(X_U2.7)     .6245 




    VOLTAGE SOURCE CURRENTS
    NAME         CURRENT

    V_V1        -3.439E+00
    V_V2         0.000E+00
    X_U1.vic     2.498E-05
    X_U2.vic     1.511E-05

    TOTAL POWER DISSIPATION   1.72E+01  WATTS



          JOB CONCLUDED

**** 03/18/22 09:45:34 ******* PSpice Lite (March 2016) ******* ID# 10813 ****

 ** Profile: "SCHEMATIC1-bandgap1"  [ D:\Practicas\E_General\termometro_0-PSpiceFiles\SCHEMATIC1\bandgap1.sim ] 


 ****     JOB STATISTICS SUMMARY


******************************************************************************



  Total job time (using Solver 1)   =         .03
