
**** 03/19/22 18:52:07 ******* PSpice Lite (March 2016) ******* ID# 10813 ****

 ** Profile: "SCHEMATIC1-bias"  [ D:\Practicas\E_General\termometro_infinito1-PSpiceFiles\SCHEMATIC1\bias.sim ] 


 ****     CIRCUIT DESCRIPTION


******************************************************************************




** Creating circuit file "bias.cir" 
** WARNING: THIS AUTOMATICALLY GENERATED FILE MAY BE OVERWRITTEN BY SUBSEQUENT SIMULATIONS

*Libraries: 
* Profile Libraries :
* Local Libraries :
* From [PSPICE NETLIST] section of C:\SPB_DATA\cdssetup\OrCAD_PSpice\17.2.0\PSpice.ini file:
.lib "nomd.lib" 

*Analysis directives: 
.OPTIONS ADVCONV
.PROBE64 V(alias(*)) I(alias(*)) W(alias(*)) D(alias(*)) NOISE(alias(*)) 
.INC "..\SCHEMATIC1.net" 



**** INCLUDING SCHEMATIC1.net ****
* source TERMOMETRO_INFINITO1
Q_Q2         VC+ N02118 N02376 Q2N3904
D_D2         N02372 N02364 D1N4148 
R_R1         N02138 VC+  188.2k TC=0,0 
X_U1A         N02138 N02364 VC+ VS- N02118 LM358
R_R2         0 N02364  1.2k TC=0,0 
V_V1         VC+ 0 5
R_R5         N02376 N02522  1k TC=0,0 
R_R3         0 N02642  1.2k TC=0,0 
R_R4         N02372 N02312  1k TC=0,0 
Q_Q1         VC+ N02118 N02372 Q2N3904
X_D1         0 N02138 LM385 
R_R7         N02522 0  1k TC=0,0 
V_V2         0 VS- 5
R_R6         N02312 N02322  1k TC=0,0 
X_U1B         N02522 N02312 VC+ VS- N02322 LM358
D_D3         N02376 N02642 D1N4148 

**** RESUMING bias.cir ****
.END

**** 03/19/22 18:52:07 ******* PSpice Lite (March 2016) ******* ID# 10813 ****

 ** Profile: "SCHEMATIC1-bias"  [ D:\Practicas\E_General\termometro_infinito1-PSpiceFiles\SCHEMATIC1\bias.sim ] 


 ****     Diode MODEL PARAMETERS


******************************************************************************




               D1N4148         X_D1.DF         
          IS    2.682000E-09   39.120000E-15 
           N    1.836            .9983       
         ISR    1.565000E-09                 
         IKF     .04417                      
          BV  100                            
         IBV  100.000000E-06                 
          RS     .5664         12.18         
          TT   11.540000E-09                 
         CJO    4.000000E-12                 
          VJ     .5                          
           M     .3333                       


               X_U1A.x_lm358.dx 
          IS  800.000000E-18 
          RS    1            


               X_U1A.x_lm358.dy 
          IS  800.000000E-18 
          RS    1.000000E-03 
         CJO   10.000000E-12 


               X_U1B.x_lm358.dx 
          IS  800.000000E-18 
          RS    1            


               X_U1B.x_lm358.dy 
          IS  800.000000E-18 
          RS    1.000000E-03 
         CJO   10.000000E-12 


**** 03/19/22 18:52:07 ******* PSpice Lite (March 2016) ******* ID# 10813 ****

 ** Profile: "SCHEMATIC1-bias"  [ D:\Practicas\E_General\termometro_infinito1-PSpiceFiles\SCHEMATIC1\bias.sim ] 


 ****     BJT MODEL PARAMETERS


******************************************************************************




               Q2N3904         X_U1A.x_lm358.qx 
               NPN             PNP             
       LEVEL    1               1            
          IS    6.734000E-15  800.000000E-18 
          BF  416.4           166.7          
          NF    1               1            
         VAF   74.03                         
         IKF     .06678                      
         ISE    6.734000E-15                 
          NE    1.259                        
          BR     .7371          1            
          NR    1               1            
         ISS    0               0            
          RB   10                            
          RE    0               0            
          RC    1               0            
         CJE    4.493000E-12    0            
         VJE     .75             .75         
         MJE     .2593                       
         CJC    3.638000E-12    0            
         VJC     .75             .75         
         MJC     .3085           .33         
        XCJC    1               1            
         CJS    0               0            
         VJS     .75             .75         
          TF  301.200000E-12                 
         XTF    2                            
         VTF    4                            
         ITF     .4                          
          TR  239.500000E-09                 
         XTB    1.5                          
          KF    0               0            
          AF    1               1            
          CN    2.42            2.2          
           D     .87             .52         


               X_U1B.x_lm358.qx 
               PNP             
       LEVEL    1            
          IS  800.000000E-18 
          BF  166.7          
          NF    1            
          BR    1            
          NR    1            
         ISS    0            
          RE    0            
          RC    0            
         CJE    0            
         VJE     .75         
         CJC    0            
         VJC     .75         
         MJC     .33         
        XCJC    1            
         CJS    0            
         VJS     .75         
          KF    0            
          AF    1            
          CN    2.2          
           D     .52         


**** 03/19/22 18:52:07 ******* PSpice Lite (March 2016) ******* ID# 10813 ****

 ** Profile: "SCHEMATIC1-bias"  [ D:\Practicas\E_General\termometro_infinito1-PSpiceFiles\SCHEMATIC1\bias.sim ] 


 ****     Current Controlled Switch MODEL PARAMETERS


******************************************************************************




               X_U1A.x_lm358.sw2 
         RON    1            
        ROFF   10.000000E+06 
         ION    0            
        IOFF   -1.000000E-06 


               X_U1A.x_lm358.sw1 
         RON    1            
        ROFF   10.000000E+06 
         ION   -1.000000E-06 
        IOFF    0            


               X_U1A.x_lm358.sw3 
         RON    1            
        ROFF   10.000000E+06 
         ION   -1.000000E-06 
        IOFF    0            


               X_U1A.x_lm358.sw4 
         RON    1            
        ROFF   10.000000E+06 
         ION    0            
        IOFF   -1.000000E-06 


               X_U1B.x_lm358.sw2 
         RON    1            
        ROFF   10.000000E+06 
         ION    0            
        IOFF   -1.000000E-06 


               X_U1B.x_lm358.sw1 
         RON    1            
        ROFF   10.000000E+06 
         ION   -1.000000E-06 
        IOFF    0            


               X_U1B.x_lm358.sw3 
         RON    1            
        ROFF   10.000000E+06 
         ION   -1.000000E-06 
        IOFF    0            


               X_U1B.x_lm358.sw4 
         RON    1            
        ROFF   10.000000E+06 
         ION    0            
        IOFF   -1.000000E-06 


**** 03/19/22 18:52:07 ******* PSpice Lite (March 2016) ******* ID# 10813 ****

 ** Profile: "SCHEMATIC1-bias"  [ D:\Practicas\E_General\termometro_infinito1-PSpiceFiles\SCHEMATIC1\bias.sim ] 


 ****     SMALL SIGNAL BIAS SOLUTION       TEMPERATURE =   27.000 DEG C


******************************************************************************



 NODE   VOLTAGE     NODE   VOLTAGE     NODE   VOLTAGE     NODE   VOLTAGE


(  VC+)    5.0000  (  VS-)   -5.0000  (N02118)    2.5226 (N02138)    1.2348     

(N02312)     .9196 (N02322)-964.0E-06 (N02364)    1.2342 (N02372)    1.8402     

(N02376)    1.8402 (N02522)     .9201 (N02642)    1.2342 (X_D1.1) 1.602E-06     

(X_D1.2)    -.0022 (X_D1.3)    1.2370 (X_U1A.x_lm358.6)-475.9E-06               

(X_U1A.x_lm358.7)    2.5239           (X_U1A.x_lm358.8)    2.5239               

(X_U1A.x_lm358.9)    0.0000           (X_U1A.x_lm358.a)    5.0000               

(X_U1A.x_lm358.b)-26.69E-06           (X_U1B.x_lm358.6) 13.37E-06               

(X_U1B.x_lm358.7)    -.0470           (X_U1B.x_lm358.8)    -.0470               

(X_U1B.x_lm358.9)    0.0000           (X_U1B.x_lm358.a) 921.1E-06               

(X_U1B.x_lm358.b)   -4.9991           (X_U1A.x_lm358.10)    1.8419              

(X_U1A.x_lm358.11)   -4.9603          (X_U1A.x_lm358.12)   -4.9609              

(X_U1A.x_lm358.13)    1.8280          (X_U1A.x_lm358.14)    1.8282              

(X_U1A.x_lm358.53)    3.5000          (X_U1A.x_lm358.54)   -4.1780              

(X_U1A.x_lm358.90)     .0262          (X_U1A.x_lm358.91)   40.0000              

(X_U1A.x_lm358.92)  -40.0000          (X_U1A.x_lm358.99)    0.0000              

(X_U1B.x_lm358.10)    1.5274          (X_U1B.x_lm358.11)   -4.9603              

(X_U1B.x_lm358.12)   -4.9608          (X_U1B.x_lm358.13)    1.5135              

(X_U1B.x_lm358.14)    1.5136          (X_U1B.x_lm358.53)    3.5000              

(X_U1B.x_lm358.54)   -4.1780          (X_U1B.x_lm358.90)    -.9206              

(X_U1B.x_lm358.91)   40.0000          (X_U1B.x_lm358.92)  -40.0000              

(X_U1B.x_lm358.99)    0.0000          




    VOLTAGE SOURCE CURRENTS
    NAME         CURRENT

    V_V1        -6.151E-03
    V_V2        -3.154E-03
    X_U1A.x_lm358.vb  -4.759E-09
    X_U1A.x_lm358.vc   9.782E-13
    X_U1A.x_lm358.ve   7.273E-12
    X_U1A.x_lm358.vlim   2.619E-05
    X_U1A.x_lm358.vlp  -3.997E-11
    X_U1A.x_lm358.vln  -4.003E-11
    X_U1B.x_lm358.vb   1.337E-10
    X_U1B.x_lm358.vc   3.502E-12
    X_U1B.x_lm358.ve   4.750E-12
    X_U1B.x_lm358.vlim  -9.206E-04
    X_U1B.x_lm358.vlp  -4.092E-11
    X_U1B.x_lm358.vln  -3.908E-11

    TOTAL POWER DISSIPATION   4.65E-02  WATTS



          JOB CONCLUDED

**** 03/19/22 18:52:07 ******* PSpice Lite (March 2016) ******* ID# 10813 ****

 ** Profile: "SCHEMATIC1-bias"  [ D:\Practicas\E_General\termometro_infinito1-PSpiceFiles\SCHEMATIC1\bias.sim ] 


 ****     JOB STATISTICS SUMMARY


******************************************************************************



  Total job time (using Solver 1)   =         .05
