
**** 03/18/22 18:49:09 ******* PSpice Lite (March 2016) ******* ID# 10813 ****

 ** Profile: "SCHEMATIC1-bpt3_1"  [ D:\Practicas\E_General\Termometro_4-PSpiceFiles\SCHEMATIC1\bpt3_1.sim ] 


 ****     CIRCUIT DESCRIPTION


******************************************************************************




** Creating circuit file "bpt3_1.cir" 
** WARNING: THIS AUTOMATICALLY GENERATED FILE MAY BE OVERWRITTEN BY SUBSEQUENT SIMULATIONS

*Libraries: 
* Profile Libraries :
* Local Libraries :
* From [PSPICE NETLIST] section of C:\SPB_DATA\cdssetup\OrCAD_PSpice\17.2.0\PSpice.ini file:
.lib "nomd.lib" 

*Analysis directives: 
.OP
.OPTIONS ADVCONV
.PROBE64 V(alias(*)) I(alias(*)) W(alias(*)) D(alias(*)) NOISE(alias(*)) 
.INC "..\SCHEMATIC1.net" 



**** INCLUDING SCHEMATIC1.net ****
* source TERMOMETRO_4
X_D1         0 N00067 LM385 
R_R1         N00067 VCC  116564 TC=0,0 
X_U1A         N00067 N00238 VCC VSS N00231 LM358
D_D2         0 N00238 D1N4148 
D_D3         N00349 N00067 D1N4148 
R_R2         N00238 N00231  1k TC=0,0 
Q_Q1         N00349 N00335 N00342 Q2N3904
Q_Q2         0 N00342 N00335 Q2N3904
R_R3         N00335 N00067  1k TC=0,0 
R_R4         0 N00342  1.4M TC=0,0 
R_R5         N00067 N00931  1k TC=0,0 
X_U1B         N00231 N00931 VCC VSS N00984 LM358
V_V1         VCC 0 5
V_V2         0 VSS 5

**** RESUMING bpt3_1.cir ****
.END

**** 03/18/22 18:49:09 ******* PSpice Lite (March 2016) ******* ID# 10813 ****

 ** Profile: "SCHEMATIC1-bpt3_1"  [ D:\Practicas\E_General\Termometro_4-PSpiceFiles\SCHEMATIC1\bpt3_1.sim ] 


 ****     Diode MODEL PARAMETERS


******************************************************************************




               D1N4148         X_D1.DF         
          IS    2.682000E-09   39.120000E-15 
           N    1.836            .9983       
         ISR    1.565000E-09                 
         IKF     .04417                      
          BV  100                            
         IBV  100.000000E-06                 
          RS     .5664         12.18         
          TT   11.540000E-09                 
         CJO    4.000000E-12                 
          VJ     .5                          
           M     .3333                       


               X_U1A.x_lm358.dx 
          IS  800.000000E-18 
          RS    1            


               X_U1A.x_lm358.dy 
          IS  800.000000E-18 
          RS    1.000000E-03 
         CJO   10.000000E-12 


               X_U1B.x_lm358.dx 
          IS  800.000000E-18 
          RS    1            


               X_U1B.x_lm358.dy 
          IS  800.000000E-18 
          RS    1.000000E-03 
         CJO   10.000000E-12 


**** 03/18/22 18:49:09 ******* PSpice Lite (March 2016) ******* ID# 10813 ****

 ** Profile: "SCHEMATIC1-bpt3_1"  [ D:\Practicas\E_General\Termometro_4-PSpiceFiles\SCHEMATIC1\bpt3_1.sim ] 


 ****     BJT MODEL PARAMETERS


******************************************************************************




               Q2N3904         X_U1A.x_lm358.qx 
               NPN             PNP             
       LEVEL    1               1            
          IS    6.734000E-15  800.000000E-18 
          BF  416.4           166.7          
          NF    1               1            
         VAF   74.03                         
         IKF     .06678                      
         ISE    6.734000E-15                 
          NE    1.259                        
          BR     .7371          1            
          NR    1               1            
         ISS    0               0            
          RB   10                            
          RE    0               0            
          RC    1               0            
         CJE    4.493000E-12    0            
         VJE     .75             .75         
         MJE     .2593                       
         CJC    3.638000E-12    0            
         VJC     .75             .75         
         MJC     .3085           .33         
        XCJC    1               1            
         CJS    0               0            
         VJS     .75             .75         
          TF  301.200000E-12                 
         XTF    2                            
         VTF    4                            
         ITF     .4                          
          TR  239.500000E-09                 
         XTB    1.5                          
          KF    0               0            
          AF    1               1            
          CN    2.42            2.2          
           D     .87             .52         


               X_U1B.x_lm358.qx 
               PNP             
       LEVEL    1            
          IS  800.000000E-18 
          BF  166.7          
          NF    1            
          BR    1            
          NR    1            
         ISS    0            
          RE    0            
          RC    0            
         CJE    0            
         VJE     .75         
         CJC    0            
         VJC     .75         
         MJC     .33         
        XCJC    1            
         CJS    0            
         VJS     .75         
          KF    0            
          AF    1            
          CN    2.2          
           D     .52         


**** 03/18/22 18:49:09 ******* PSpice Lite (March 2016) ******* ID# 10813 ****

 ** Profile: "SCHEMATIC1-bpt3_1"  [ D:\Practicas\E_General\Termometro_4-PSpiceFiles\SCHEMATIC1\bpt3_1.sim ] 


 ****     Current Controlled Switch MODEL PARAMETERS


******************************************************************************




               X_U1A.x_lm358.sw2 
         RON    1            
        ROFF   10.000000E+06 
         ION    0            
        IOFF   -1.000000E-06 


               X_U1A.x_lm358.sw1 
         RON    1            
        ROFF   10.000000E+06 
         ION   -1.000000E-06 
        IOFF    0            


               X_U1A.x_lm358.sw3 
         RON    1            
        ROFF   10.000000E+06 
         ION   -1.000000E-06 
        IOFF    0            


               X_U1A.x_lm358.sw4 
         RON    1            
        ROFF   10.000000E+06 
         ION    0            
        IOFF   -1.000000E-06 


               X_U1B.x_lm358.sw2 
         RON    1            
        ROFF   10.000000E+06 
         ION    0            
        IOFF   -1.000000E-06 


               X_U1B.x_lm358.sw1 
         RON    1            
        ROFF   10.000000E+06 
         ION   -1.000000E-06 
        IOFF    0            


               X_U1B.x_lm358.sw3 
         RON    1            
        ROFF   10.000000E+06 
         ION   -1.000000E-06 
        IOFF    0            


               X_U1B.x_lm358.sw4 
         RON    1            
        ROFF   10.000000E+06 
         ION    0            
        IOFF   -1.000000E-06 


**** 03/18/22 18:49:09 ******* PSpice Lite (March 2016) ******* ID# 10813 ****

 ** Profile: "SCHEMATIC1-bpt3_1"  [ D:\Practicas\E_General\Termometro_4-PSpiceFiles\SCHEMATIC1\bpt3_1.sim ] 


 ****     SMALL SIGNAL BIAS SOLUTION       TEMPERATURE =   27.000 DEG C


******************************************************************************



 NODE   VOLTAGE     NODE   VOLTAGE     NODE   VOLTAGE     NODE   VOLTAGE


(  VCC)    5.0000  (  VSS)   -5.0000  (N00067)     .6285 (N00231)     .6281     

(N00238)     .6281 (N00335)     .5932 (N00342) 49.53E-09 (N00349)     .0223     

(N00931)     .6286 (N00984)   -4.9292 (X_D1.1)-62.06E-15 (X_D1.2)    -.6085     

(X_D1.3)    1.2370 (X_U1A.x_lm358.6)-118.4E-06                                  

(X_U1A.x_lm358.7)     .6281           (X_U1A.x_lm358.8)     .6281               

(X_U1A.x_lm358.9)    0.0000           (X_U1A.x_lm358.a)    5.0000               

(X_U1A.x_lm358.b)-850.5E-09           (X_U1B.x_lm358.6)     .0164               

(X_U1B.x_lm358.7)   -5.0933           (X_U1B.x_lm358.8)   -5.0933               

(X_U1B.x_lm358.9)    0.0000           (X_U1B.x_lm358.a)     .0033               

(X_U1B.x_lm358.b)   -4.9967           (X_U1A.x_lm358.10)    1.2359              

(X_U1A.x_lm358.11)   -4.9603          (X_U1A.x_lm358.12)   -4.9607              

(X_U1A.x_lm358.13)    1.2220          (X_U1A.x_lm358.14)    1.2221              

(X_U1A.x_lm358.53)    3.5000          (X_U1A.x_lm358.54)   -4.1780              

(X_U1A.x_lm358.90)-85.17E-06          (X_U1A.x_lm358.91)   40.0000              

(X_U1A.x_lm358.92)  -40.0000          (X_U1A.x_lm358.99)    0.0000              

(X_U1B.x_lm358.10)    1.2359          (X_U1B.x_lm358.11)   -4.9607              

(X_U1B.x_lm358.12)   -4.9602          (X_U1B.x_lm358.13)    1.2221              

(X_U1B.x_lm358.14)    1.2220          (X_U1B.x_lm358.53)    3.5000              

(X_U1B.x_lm358.54)   -4.1780          (X_U1B.x_lm358.90)   -3.2817              

(X_U1B.x_lm358.91)   40.0000          (X_U1B.x_lm358.92)  -40.0000              

(X_U1B.x_lm358.99)    0.0000          




    VOLTAGE SOURCE CURRENTS
    NAME         CURRENT

    V_V1        -2.271E-03
    V_V2        -2.233E-03
    X_U1A.x_lm358.vb  -1.184E-09
    X_U1A.x_lm358.vc   2.873E-12
    X_U1A.x_lm358.ve   5.379E-12
    X_U1A.x_lm358.vlim  -8.517E-08
    X_U1A.x_lm358.vlp  -4.000E-11
    X_U1A.x_lm358.vln  -4.000E-11
    X_U1B.x_lm358.vb   1.644E-07
    X_U1B.x_lm358.vc   8.430E-12
    X_U1B.x_lm358.ve  -3.282E-03
    X_U1B.x_lm358.vlim  -3.282E-03
    X_U1B.x_lm358.vlp  -4.328E-11
    X_U1B.x_lm358.vln  -3.672E-11

    TOTAL POWER DISSIPATION   2.52E-02  WATTS


**** 03/18/22 18:49:09 ******* PSpice Lite (March 2016) ******* ID# 10813 ****

 ** Profile: "SCHEMATIC1-bpt3_1"  [ D:\Practicas\E_General\Termometro_4-PSpiceFiles\SCHEMATIC1\bpt3_1.sim ] 


 ****     OPERATING POINT INFORMATION      TEMPERATURE =   27.000 DEG C


******************************************************************************






**** VOLTAGE-CONTROLLED CURRENT SOURCES


NAME         X_D1.GREV   X_D1.GZ     X_U1A.x_lm358.ga      
I-SOURCE    -2.212E-06   0.000E+00   7.485E-08            

NAME         X_U1A.x_lm358.gcm       X_U1B.x_lm358.ga      
I-SOURCE     7.367E-08              -9.074E-08            

NAME         X_U1B.x_lm358.gcm     
I-SOURCE     7.367E-08            


**** VOLTAGE-CONTROLLED VOLTAGE SOURCES


NAME         X_D1.EBV    X_U1A.x_lm358.egnd      X_U1B.x_lm358.egnd    
V-SOURCE     1.237E+00   0.000E+00               0.000E+00            
I-SOURCE    -6.085E-13   1.784E-07               3.282E-03            


**** CURRENT-CONTROLLED CURRENT SOURCES


NAME         X_U1A.x_lm358.fb        X_U1A.x_lm358.fpos    
I-SOURCE    -2.512E-02              -8.517E-08            

NAME         X_U1A.x_lm358.fneg      X_U1B.x_lm358.fb      
I-SOURCE     8.517E-08               2.070E-01            

NAME         X_U1B.x_lm358.fpos      X_U1B.x_lm358.fneg    
I-SOURCE    -3.282E-03               3.282E-03            


**** CURRENT-CONTROLLED VOLTAGE SOURCES


NAME         X_U1A.x_lm358.hlim      X_U1B.x_lm358.hlim    
V-SOURCE    -8.517E-05              -3.282E+00            
I-SOURCE     1.703E-16               6.564E-12            


**** DIODES


NAME         D_D2        D_D3        X_D1.DFWD   X_U1A.x_lm358.dc      
MODEL        D1N4148     D1N4148     X_D1.DF     X_U1A.x_lm358.dy      
ID          -4.73E-09   -4.72E-09   -6.68E-13   -2.87E-12             
VD          -6.28E-01   -6.06E-01   -6.29E-01   -2.87E+00             
REQ          3.30E+09    3.26E+09    1.00E+12    1.00E+12             
CAP          3.05E-12    3.07E-12    0.00E+00    5.08E-12             

NAME         X_U1A.x_lm358.de        X_U1A.x_lm358.dlp     
MODEL        X_U1A.x_lm358.dy        X_U1A.x_lm358.dx      
ID          -4.81E-12               -4.00E-11             
VD          -4.81E+00               -4.00E+01             
REQ          1.00E+12                1.00E+12             
CAP          4.15E-12                0.00E+00             

NAME         X_U1A.x_lm358.dln       X_U1A.x_lm358.dp      
MODEL        X_U1A.x_lm358.dx        X_U1A.x_lm358.dx      
ID          -4.00E-11               -1.00E-11             
VD          -4.00E+01               -1.00E+01             
REQ          1.00E+12                1.00E+12             
CAP          0.00E+00                0.00E+00             

NAME         X_U1B.x_lm358.dc        X_U1B.x_lm358.de      
MODEL        X_U1B.x_lm358.dy        X_U1B.x_lm358.dy      
ID          -8.43E-12                3.28E-03             
VD          -8.43E+00                7.51E-01             
REQ          1.00E+12                7.88E+00             
CAP          3.26E-12                1.77E-11             

NAME         X_U1B.x_lm358.dlp       X_U1B.x_lm358.dln     
MODEL        X_U1B.x_lm358.dx        X_U1B.x_lm358.dx      
ID          -4.33E-11               -3.67E-11             
VD          -4.33E+01               -3.67E+01             
REQ          1.00E+12                1.00E+12             
CAP          0.00E+00                0.00E+00             

NAME         X_U1B.x_lm358.dp      
MODEL        X_U1B.x_lm358.dx      
ID          -1.00E-11             
VD          -1.00E+01             
REQ          1.00E+12             
CAP          0.00E+00             


**** BIPOLAR JUNCTION TRANSISTORS


NAME         Q_Q1        Q_Q2        X_U1A.x_lm358.q1      
MODEL        Q2N3904     Q2N3904     X_U1A.x_lm358.qx      
IB           3.54E-05   -8.17E-15   -4.49E-08             
IC           4.72E-09   -6.00E-13   -7.49E-06             
VBE          5.93E-01   -5.93E-01   -5.94E-01             
VBC          5.71E-01    4.95E-08    5.59E+00             
VCE          2.23E-02   -5.93E-01   -6.18E+00             
BETADC       1.33E-04    7.34E+01    1.67E+02             
GM           1.34E-03   -2.52E-13    2.90E-04             
RPI          4.49E+04    4.16E+14    5.76E+05             
RX           1.00E+01    1.00E+01    0.00E+00             
RO           1.02E+03    7.99E+11    1.00E+12             
CBE          6.89E-12    3.86E-12    0.00E+00             
CBC          2.42E-10    3.64E-12    0.00E+00             
CJS          0.00E+00    0.00E+00    0.00E+00             
BETAAC       6.01E+01   -1.05E+02    1.67E+02             
CBX/CBX2     0.00E+00    0.00E+00    0.00E+00             
FT/FT2       8.57E+05   -5.35E-03    4.61E+15             



NAME         X_U1A.x_lm358.q2        X_U1B.x_lm358.q1      
MODEL        X_U1A.x_lm358.qx        X_U1B.x_lm358.qx      
IB          -4.45E-08               -4.44E-08             
IC          -7.42E-06               -7.41E-06             
VBE         -5.94E-01               -5.94E-01             
VBC          5.59E+00                5.59E+00             
VCE         -6.18E+00               -6.18E+00             
BETADC       1.67E+02                1.67E+02             
GM           2.87E-04                2.86E-04             
RPI          5.81E+05                5.82E+05             
RX           0.00E+00                0.00E+00             
RO           1.00E+12                1.00E+12             
CBE          0.00E+00                0.00E+00             
CBC          0.00E+00                0.00E+00             
CJS          0.00E+00                0.00E+00             
BETAAC       1.67E+02                1.67E+02             
CBX/CBX2     0.00E+00                0.00E+00             
FT/FT2       4.56E+15                4.56E+15             



NAME         X_U1B.x_lm358.q2      
MODEL        X_U1B.x_lm358.qx      
IB          -4.50E-08             
IC          -7.50E-06             
VBE         -5.94E-01             
VBC          5.59E+00             
VCE         -6.18E+00             
BETADC       1.67E+02             
GM           2.90E-04             
RPI          5.75E+05             
RX           0.00E+00             
RO           1.00E+12             
CBE          0.00E+00             
CBC          0.00E+00             
CJS          0.00E+00             
BETAAC       1.67E+02             
CBX/CBX2     0.00E+00             
FT/FT2       4.61E+15             




**** CURRENT CONTROLLED SWITCHES


NAME         X_U1A.x_lm358.w2        X_U1A.x_lm358.w1      
MODEL        X_U1A.x_lm358.sw2       X_U1A.x_lm358.sw1     
I LOAD       6.11E-07                6.96E-07             
V LOAD       8.51E-07                5.00E+00             
R LOAD       1.39E+00                7.18E+06             
I CTRL      -8.52E-08               -8.52E-08             

NAME         X_U1A.x_lm358.w3        X_U1A.x_lm358.w4      
MODEL        X_U1A.x_lm358.sw3       X_U1A.x_lm358.sw4     
I LOAD      -6.96E-07               -6.11E-07             
V LOAD      -5.00E+00               -8.51E-07             
R LOAD       7.18E+06                1.39E+00             
I CTRL      -8.52E-08               -8.52E-08             

NAME         X_U1B.x_lm358.w2        X_U1B.x_lm358.w1      
MODEL        X_U1B.x_lm358.sw2       X_U1B.x_lm358.sw1     
I LOAD       5.00E-07                3.28E-03             
V LOAD       5.00E+00                3.28E-03             
R LOAD       1.00E+07                1.00E+00             
I CTRL      -3.28E-03               -3.28E-03             

NAME         X_U1B.x_lm358.w3        X_U1B.x_lm358.w4      
MODEL        X_U1B.x_lm358.sw3       X_U1B.x_lm358.sw4     
I LOAD      -3.28E-03               -5.00E-07             
V LOAD      -3.28E-03               -5.00E+00             
R LOAD       1.00E+00                1.00E+07             
I CTRL      -3.28E-03               -3.28E-03             

          JOB CONCLUDED

**** 03/18/22 18:49:09 ******* PSpice Lite (March 2016) ******* ID# 10813 ****

 ** Profile: "SCHEMATIC1-bpt3_1"  [ D:\Practicas\E_General\Termometro_4-PSpiceFiles\SCHEMATIC1\bpt3_1.sim ] 


 ****     JOB STATISTICS SUMMARY


******************************************************************************



  Total job time (using Solver 1)   =         .17
