
**** 03/09/22 12:14:36 ******* PSpice Lite (March 2016) ******* ID# 10813 ****

 ** Profile: "SCHEMATIC1-bp1"  [ D:\Practicas\E_General\Termometro-PSpiceFiles\SCHEMATIC1\bp1.sim ] 


 ****     CIRCUIT DESCRIPTION


******************************************************************************




** Creating circuit file "bp1.cir" 
** WARNING: THIS AUTOMATICALLY GENERATED FILE MAY BE OVERWRITTEN BY SUBSEQUENT SIMULATIONS

*Libraries: 
* Profile Libraries :
* Local Libraries :
* From [PSPICE NETLIST] section of C:\SPB_DATA\cdssetup\OrCAD_PSpice\17.2.0\PSpice.ini file:
.lib "nomd.lib" 

*Analysis directives: 
.OP
.OPTIONS ADVCONV
.PROBE64 V(alias(*)) I(alias(*)) W(alias(*)) D(alias(*)) NOISE(alias(*)) 
.INC "..\SCHEMATIC1.net" 



**** INCLUDING SCHEMATIC1.net ****
* source TERMOMETRO
X_U1A         N00331 N00310 VCC VSS N00296 LM358
Q_Q1         VCC N00296 N00306 Q2N3904
R_R1         N00310 N00306  1k TC=0,0 
D_D1         N00310 0 D1N4148 
V_V1         N00331 0 0
V_V2         VCC 0 5
V_V3         0 VSS 5
Q_Q2         VCC N00951 N00965 Q2N3904
X_U1B         N01801 N00957 VCC VSS N00951 LM358
V_V4         N01805 0 700mV
R_R2         N00957 N00965  1k TC=0,0 
D_D2         N00957 0 D1N4148 
R_R3         N01801 N01805  1k TC=0,0 
D_D3         N01801 0 D1N4148 

**** RESUMING bp1.cir ****
.END

**** 03/09/22 12:14:36 ******* PSpice Lite (March 2016) ******* ID# 10813 ****

 ** Profile: "SCHEMATIC1-bp1"  [ D:\Practicas\E_General\Termometro-PSpiceFiles\SCHEMATIC1\bp1.sim ] 


 ****     Diode MODEL PARAMETERS


******************************************************************************




               D1N4148         X_U1A.x_lm358.dx 
          IS    2.682000E-09  800.000000E-18 
           N    1.836                        
         ISR    1.565000E-09                 
         IKF     .04417                      
          BV  100                            
         IBV  100.000000E-06                 
          RS     .5664          1            
          TT   11.540000E-09                 
         CJO    4.000000E-12                 
          VJ     .5                          
           M     .3333                       


               X_U1A.x_lm358.dy 
          IS  800.000000E-18 
          RS    1.000000E-03 
         CJO   10.000000E-12 


               X_U1B.x_lm358.dx 
          IS  800.000000E-18 
          RS    1            


               X_U1B.x_lm358.dy 
          IS  800.000000E-18 
          RS    1.000000E-03 
         CJO   10.000000E-12 


**** 03/09/22 12:14:36 ******* PSpice Lite (March 2016) ******* ID# 10813 ****

 ** Profile: "SCHEMATIC1-bp1"  [ D:\Practicas\E_General\Termometro-PSpiceFiles\SCHEMATIC1\bp1.sim ] 


 ****     BJT MODEL PARAMETERS


******************************************************************************




               Q2N3904         X_U1A.x_lm358.qx 
               NPN             PNP             
       LEVEL    1               1            
          IS    6.734000E-15  800.000000E-18 
          BF  416.4           166.7          
          NF    1               1            
         VAF   74.03                         
         IKF     .06678                      
         ISE    6.734000E-15                 
          NE    1.259                        
          BR     .7371          1            
          NR    1               1            
         ISS    0               0            
          RB   10                            
          RE    0               0            
          RC    1               0            
         CJE    4.493000E-12    0            
         VJE     .75             .75         
         MJE     .2593                       
         CJC    3.638000E-12    0            
         VJC     .75             .75         
         MJC     .3085           .33         
        XCJC    1               1            
         CJS    0               0            
         VJS     .75             .75         
          TF  301.200000E-12                 
         XTF    2                            
         VTF    4                            
         ITF     .4                          
          TR  239.500000E-09                 
         XTB    1.5                          
          KF    0               0            
          AF    1               1            
          CN    2.42            2.2          
           D     .87             .52         


               X_U1B.x_lm358.qx 
               PNP             
       LEVEL    1            
          IS  800.000000E-18 
          BF  166.7          
          NF    1            
          BR    1            
          NR    1            
         ISS    0            
          RE    0            
          RC    0            
         CJE    0            
         VJE     .75         
         CJC    0            
         VJC     .75         
         MJC     .33         
        XCJC    1            
         CJS    0            
         VJS     .75         
          KF    0            
          AF    1            
          CN    2.2          
           D     .52         


**** 03/09/22 12:14:36 ******* PSpice Lite (March 2016) ******* ID# 10813 ****

 ** Profile: "SCHEMATIC1-bp1"  [ D:\Practicas\E_General\Termometro-PSpiceFiles\SCHEMATIC1\bp1.sim ] 


 ****     Current Controlled Switch MODEL PARAMETERS


******************************************************************************




               X_U1A.x_lm358.sw2 
         RON    1            
        ROFF   10.000000E+06 
         ION    0            
        IOFF   -1.000000E-06 


               X_U1A.x_lm358.sw1 
         RON    1            
        ROFF   10.000000E+06 
         ION   -1.000000E-06 
        IOFF    0            


               X_U1A.x_lm358.sw3 
         RON    1            
        ROFF   10.000000E+06 
         ION   -1.000000E-06 
        IOFF    0            


               X_U1A.x_lm358.sw4 
         RON    1            
        ROFF   10.000000E+06 
         ION    0            
        IOFF   -1.000000E-06 


               X_U1B.x_lm358.sw2 
         RON    1            
        ROFF   10.000000E+06 
         ION    0            
        IOFF   -1.000000E-06 


               X_U1B.x_lm358.sw1 
         RON    1            
        ROFF   10.000000E+06 
         ION   -1.000000E-06 
        IOFF    0            


               X_U1B.x_lm358.sw3 
         RON    1            
        ROFF   10.000000E+06 
         ION   -1.000000E-06 
        IOFF    0            


               X_U1B.x_lm358.sw4 
         RON    1            
        ROFF   10.000000E+06 
         ION    0            
        IOFF   -1.000000E-06 


**** 03/09/22 12:14:36 ******* PSpice Lite (March 2016) ******* ID# 10813 ****

 ** Profile: "SCHEMATIC1-bp1"  [ D:\Practicas\E_General\Termometro-PSpiceFiles\SCHEMATIC1\bp1.sim ] 


 ****     SMALL SIGNAL BIAS SOLUTION       TEMPERATURE =   27.000 DEG C


******************************************************************************



 NODE   VOLTAGE     NODE   VOLTAGE     NODE   VOLTAGE     NODE   VOLTAGE


(  VCC)    5.0000  (  VSS)   -5.0000  (N00296)   -4.9943 (N00306)     .0674     

(N00310)     .0674 (N00331)    0.0000 (N00951)    1.3172 (N00957)     .5222     

(N00965)     .6982 (N01801)     .5226 (N01805)     .7000                        

(X_U1A.x_lm358.6)    1.0854           (X_U1A.x_lm358.7)   -7.0243               

(X_U1A.x_lm358.8)   -7.0243           (X_U1A.x_lm358.9)    0.0000               

(X_U1A.x_lm358.a)     .0406           (X_U1A.x_lm358.b)   -4.9594               

(X_U1B.x_lm358.6)-248.3E-06           (X_U1B.x_lm358.7)    1.3173               

(X_U1B.x_lm358.8)    1.3173           (X_U1B.x_lm358.9)    0.0000               

(X_U1B.x_lm358.a)    5.0000           (X_U1B.x_lm358.b)-2.112E-06               

(X_U1A.x_lm358.10)     .6318          (X_U1A.x_lm358.11)   -4.9890              

(X_U1A.x_lm358.12)   -4.9316          (X_U1A.x_lm358.13)     .6279              

(X_U1A.x_lm358.14)     .6079          (X_U1A.x_lm358.53)    3.5000              

(X_U1A.x_lm358.54)   -4.1780          (X_U1A.x_lm358.90)  -40.6000              

(X_U1A.x_lm358.91)   40.0000          (X_U1A.x_lm358.92)  -40.0000              

(X_U1A.x_lm358.99)    0.0000          (X_U1B.x_lm358.10)    1.1300              

(X_U1B.x_lm358.11)   -4.9603          (X_U1B.x_lm358.12)   -4.9606              

(X_U1B.x_lm358.13)    1.1161          (X_U1B.x_lm358.14)    1.1162              

(X_U1B.x_lm358.53)    3.5000          (X_U1B.x_lm358.54)   -4.1780              

(X_U1B.x_lm358.90)     .0016          (X_U1B.x_lm358.91)   40.0000              

(X_U1B.x_lm358.92)  -40.0000          (X_U1B.x_lm358.99)    0.0000          




    VOLTAGE SOURCE CURRENTS
    NAME         CURRENT

    V_V1         7.729E-08
    V_V2        -2.409E-03
    V_V3        -2.233E-03
    V_V4        -1.774E-04
    X_U1A.x_lm358.vb   1.085E-05
    X_U1A.x_lm358.vc   8.495E-12
    X_U1A.x_lm358.ve  -4.060E-02
    X_U1A.x_lm358.vlim  -4.060E-02
    X_U1A.x_lm358.vlp  -8.060E-11
    X_U1A.x_lm358.vln   9.470E-06
    X_U1B.x_lm358.vb  -2.483E-09
    X_U1B.x_lm358.vc   2.184E-12
    X_U1B.x_lm358.ve   6.068E-12
    X_U1B.x_lm358.vlim   1.612E-06
    X_U1B.x_lm358.vlp  -4.000E-11
    X_U1B.x_lm358.vln  -4.001E-11

    TOTAL POWER DISSIPATION   5.63E-02  WATTS


**** 03/09/22 12:14:36 ******* PSpice Lite (March 2016) ******* ID# 10813 ****

 ** Profile: "SCHEMATIC1-bp1"  [ D:\Practicas\E_General\Termometro-PSpiceFiles\SCHEMATIC1\bp1.sim ] 


 ****     OPERATING POINT INFORMATION      TEMPERATURE =   27.000 DEG C


******************************************************************************






**** VOLTAGE-CONTROLLED CURRENT SOURCES


NAME         X_U1A.x_lm358.ga        X_U1A.x_lm358.gcm     
I-SOURCE    -1.082E-05               3.766E-08            

NAME         X_U1B.x_lm358.ga        X_U1B.x_lm358.gcm     
I-SOURCE     6.984E-08               6.736E-08            


**** VOLTAGE-CONTROLLED VOLTAGE SOURCES


NAME         X_U1A.x_lm358.egnd      X_U1B.x_lm358.egnd    
V-SOURCE     0.000E+00               0.000E+00            
I-SOURCE     4.060E-02              -1.527E-06            


**** CURRENT-CONTROLLED CURRENT SOURCES


NAME         X_U1A.x_lm358.fb        X_U1A.x_lm358.fpos    
I-SOURCE     3.216E-01              -4.060E-02            

NAME         X_U1A.x_lm358.fneg      X_U1B.x_lm358.fb      
I-SOURCE     4.060E-02              -5.272E-02            

NAME         X_U1B.x_lm358.fpos      X_U1B.x_lm358.fneg    
I-SOURCE     1.612E-06              -1.612E-06            


**** CURRENT-CONTROLLED VOLTAGE SOURCES


NAME         X_U1A.x_lm358.hlim      X_U1B.x_lm358.hlim    
V-SOURCE    -4.060E+01               1.612E-03            
I-SOURCE     9.470E-06              -3.224E-15            


**** DIODES


NAME         D_D1        D_D2        D_D3        X_U1A.x_lm358.dc      
MODEL        D1N4148     D1N4148     D1N4148     X_U1A.x_lm358.dy      
ID           1.24E-08    1.76E-04    1.77E-04   -8.50E-12             
VD           6.74E-02    5.22E-01    5.23E-01   -8.49E+00             
REQ          2.97E+06    2.67E+02    2.65E+02    1.00E+12             
CAP          4.20E-12    5.01E-11    5.04E-11    3.25E-12             

NAME         X_U1A.x_lm358.de        X_U1A.x_lm358.dlp     
MODEL        X_U1A.x_lm358.dy        X_U1A.x_lm358.dx      
ID           4.06E-02               -8.06E-11             
VD           8.16E-01               -8.06E+01             
REQ          6.37E-01                1.00E+12             
CAP          1.86E-11                0.00E+00             

NAME         X_U1A.x_lm358.dln       X_U1A.x_lm358.dp      
MODEL        X_U1A.x_lm358.dx        X_U1A.x_lm358.dx      
ID           9.47E-06               -1.00E-11             
VD           6.00E-01               -1.00E+01             
REQ          2.73E+03                1.00E+12             
CAP          0.00E+00                0.00E+00             

NAME         X_U1B.x_lm358.dc        X_U1B.x_lm358.de      
MODEL        X_U1B.x_lm358.dy        X_U1B.x_lm358.dy      
ID          -2.18E-12               -5.50E-12             
VD          -2.18E+00               -5.50E+00             
REQ          1.00E+12                1.00E+12             
CAP          5.61E-12                3.92E-12             

NAME         X_U1B.x_lm358.dlp       X_U1B.x_lm358.dln     
MODEL        X_U1B.x_lm358.dx        X_U1B.x_lm358.dx      
ID          -4.00E-11               -4.00E-11             
VD          -4.00E+01               -4.00E+01             
REQ          1.00E+12                1.00E+12             
CAP          0.00E+00                0.00E+00             

NAME         X_U1B.x_lm358.dp      
MODEL        X_U1B.x_lm358.dx      
ID          -1.00E-11             
VD          -1.00E+01             
REQ          1.00E+12             
CAP          0.00E+00             


**** BIPOLAR JUNCTION TRANSISTORS


NAME         Q_Q1        Q_Q2        X_U1A.x_lm358.q1      
MODEL        Q2N3904     Q2N3904     X_U1A.x_lm358.qx      
IB          -1.36E-11    1.61E-06   -1.24E-08             
IC           1.92E-11    1.74E-04   -2.07E-06             
VBE         -5.06E+00    6.19E-01   -5.61E-01             
VBC         -9.99E+00   -3.68E+00    5.06E+00             
VCE          4.93E+00    4.30E+00   -5.62E+00             
BETADC      -1.41E+00    1.08E+02    1.67E+02             
GM          -6.66E-14    6.72E-03    8.00E-05             
RPI          4.16E+14    1.90E+04    2.08E+06             
RX           1.00E+01    1.00E+01    0.00E+00             
RO           8.32E+11    4.46E+05    1.00E+12             
CBE          2.64E-12    8.31E-12    0.00E+00             
CBC          1.60E-12    2.10E-12    0.00E+00             
CJS          0.00E+00    0.00E+00    0.00E+00             
BETAAC      -2.77E+01    1.28E+02    1.67E+02             
CBX/CBX2     0.00E+00    0.00E+00    0.00E+00             
FT/FT2      -2.50E-03    1.03E+08    1.27E+15             



NAME         X_U1A.x_lm358.q2        X_U1B.x_lm358.q1      
MODEL        X_U1A.x_lm358.qx        X_U1B.x_lm358.qx      
IB          -7.73E-08               -4.49E-08             
IC          -1.29E-05               -7.49E-06             
VBE         -6.08E-01               -5.94E-01             
VBC          4.93E+00                5.48E+00             
VCE         -5.54E+00               -6.08E+00             
BETADC       1.67E+02                1.67E+02             
GM           4.98E-04                2.90E-04             
RPI          3.35E+05                5.75E+05             
RX           0.00E+00                0.00E+00             
RO           1.00E+12                1.00E+12             
CBE          0.00E+00                0.00E+00             
CBC          0.00E+00                0.00E+00             
CJS          0.00E+00                0.00E+00             
BETAAC       1.67E+02                1.67E+02             
CBX/CBX2     0.00E+00                0.00E+00             
FT/FT2       7.93E+15                4.61E+15             



NAME         X_U1B.x_lm358.q2      
MODEL        X_U1B.x_lm358.qx      
IB          -4.45E-08             
IC          -7.42E-06             
VBE         -5.94E-01             
VBC          5.48E+00             
VCE         -6.08E+00             
BETADC       1.67E+02             
GM           2.87E-04             
RPI          5.81E+05             
RX           0.00E+00             
RO           1.00E+12             
CBE          0.00E+00             
CBC          0.00E+00             
CJS          0.00E+00             
BETAAC       1.67E+02             
CBX/CBX2     0.00E+00             
FT/FT2       4.57E+15             




**** CURRENT CONTROLLED SWITCHES


NAME         X_U1A.x_lm358.w2        X_U1A.x_lm358.w1      
MODEL        X_U1A.x_lm358.sw2       X_U1A.x_lm358.sw1     
I LOAD       4.96E-07                4.06E-02             
V LOAD       4.96E+00                4.06E-02             
R LOAD       1.00E+07                1.00E+00             
I CTRL      -4.06E-02               -4.06E-02             

NAME         X_U1A.x_lm358.w3        X_U1A.x_lm358.w4      
MODEL        X_U1A.x_lm358.sw3       X_U1A.x_lm358.sw4     
I LOAD      -4.06E-02               -4.96E-07             
V LOAD      -4.06E-02               -4.96E+00             
R LOAD       1.00E+00                1.00E+07             
I CTRL      -4.06E-02               -4.06E-02             

NAME         X_U1B.x_lm358.w2        X_U1B.x_lm358.w1      
MODEL        X_U1B.x_lm358.sw2       X_U1B.x_lm358.sw1     
I LOAD       2.11E-06                5.00E-07             
V LOAD       2.11E-06                5.00E+00             
R LOAD       1.00E+00                1.00E+07             
I CTRL       1.61E-06                1.61E-06             

NAME         X_U1B.x_lm358.w3        X_U1B.x_lm358.w4      
MODEL        X_U1B.x_lm358.sw3       X_U1B.x_lm358.sw4     
I LOAD      -5.00E-07               -2.11E-06             
V LOAD      -5.00E+00               -2.11E-06             
R LOAD       1.00E+07                1.00E+00             
I CTRL       1.61E-06                1.61E-06             

          JOB CONCLUDED

**** 03/09/22 12:14:36 ******* PSpice Lite (March 2016) ******* ID# 10813 ****

 ** Profile: "SCHEMATIC1-bp1"  [ D:\Practicas\E_General\Termometro-PSpiceFiles\SCHEMATIC1\bp1.sim ] 


 ****     JOB STATISTICS SUMMARY


******************************************************************************



  Total job time (using Solver 1)   =         .13
