
**** 03/19/22 17:33:43 ******* PSpice Lite (March 2016) ******* ID# 10813 ****

 ** Profile: "SCHEMATIC1-bpt3_1"  [ D:\Practicas\E_General\Termometro_Final-PSpiceFiles\SCHEMATIC1\bpt3_1.sim ] 


 ****     CIRCUIT DESCRIPTION


******************************************************************************




** Creating circuit file "bpt3_1.cir" 
** WARNING: THIS AUTOMATICALLY GENERATED FILE MAY BE OVERWRITTEN BY SUBSEQUENT SIMULATIONS

*Libraries: 
* Profile Libraries :
* Local Libraries :
* From [PSPICE NETLIST] section of C:\SPB_DATA\cdssetup\OrCAD_PSpice\17.2.0\PSpice.ini file:
.lib "nomd.lib" 

*Analysis directives: 
.OPTIONS ADVCONV
.PROBE64 V(alias(*)) I(alias(*)) W(alias(*)) D(alias(*)) NOISE(alias(*)) 
.INC "..\SCHEMATIC1.net" 



**** INCLUDING SCHEMATIC1.net ****
* source TERMOMETRO_FINAL
X_D1         0 N05787 LM385 
V_V1         VC+ 0 5
R_R1         N05719 VC+  180K TC=0,0 
R_R2         N05787 N05719  8.2K TC=0,0 
V_V2         0 VS- 5
X_U1B         N05787 N08000 VC+ VS- N07963 LM358
R_R4         0 N08000  1.2k TC=0,0 
R_R5         0 N08000  1.2k TC=0,0 
D_D4         N09157 N08000 D1N4148 
Q_Q1         VC+ N07963 N10831 Q2N3904
Q_Q2         VC+ N07963 N09157 Q2N3904
X_U3B         N09647 N09628 VC+ VS- N09382 LM358
R_R6         N10831 N09628  100 TC=0,0 
R_R7         N09157 N09647  100 TC=0,0 
R_R8         N09647 N09382  100 TC=0,0 
R_R9         N09628 0  100 TC=0,0 
D_D5         N10831 N08000 D1N4148 

**** RESUMING bpt3_1.cir ****
.END

**** 03/19/22 17:33:43 ******* PSpice Lite (March 2016) ******* ID# 10813 ****

 ** Profile: "SCHEMATIC1-bpt3_1"  [ D:\Practicas\E_General\Termometro_Final-PSpiceFiles\SCHEMATIC1\bpt3_1.sim ] 


 ****     Diode MODEL PARAMETERS


******************************************************************************




               D1N4148         X_D1.DF         
          IS    2.682000E-09   39.120000E-15 
           N    1.836            .9983       
         ISR    1.565000E-09                 
         IKF     .04417                      
          BV  100                            
         IBV  100.000000E-06                 
          RS     .5664         12.18         
          TT   11.540000E-09                 
         CJO    4.000000E-12                 
          VJ     .5                          
           M     .3333                       


               X_U1B.x_lm358.dx 
          IS  800.000000E-18 
          RS    1            


               X_U1B.x_lm358.dy 
          IS  800.000000E-18 
          RS    1.000000E-03 
         CJO   10.000000E-12 


               X_U3B.x_lm358.dx 
          IS  800.000000E-18 
          RS    1            


               X_U3B.x_lm358.dy 
          IS  800.000000E-18 
          RS    1.000000E-03 
         CJO   10.000000E-12 


**** 03/19/22 17:33:43 ******* PSpice Lite (March 2016) ******* ID# 10813 ****

 ** Profile: "SCHEMATIC1-bpt3_1"  [ D:\Practicas\E_General\Termometro_Final-PSpiceFiles\SCHEMATIC1\bpt3_1.sim ] 


 ****     BJT MODEL PARAMETERS


******************************************************************************




               Q2N3904         X_U1B.x_lm358.qx 
               NPN             PNP             
       LEVEL    1               1            
          IS    6.734000E-15  800.000000E-18 
          BF  416.4           166.7          
          NF    1               1            
         VAF   74.03                         
         IKF     .06678                      
         ISE    6.734000E-15                 
          NE    1.259                        
          BR     .7371          1            
          NR    1               1            
         ISS    0               0            
          RB   10                            
          RE    0               0            
          RC    1               0            
         CJE    4.493000E-12    0            
         VJE     .75             .75         
         MJE     .2593                       
         CJC    3.638000E-12    0            
         VJC     .75             .75         
         MJC     .3085           .33         
        XCJC    1               1            
         CJS    0               0            
         VJS     .75             .75         
          TF  301.200000E-12                 
         XTF    2                            
         VTF    4                            
         ITF     .4                          
          TR  239.500000E-09                 
         XTB    1.5                          
          KF    0               0            
          AF    1               1            
          CN    2.42            2.2          
           D     .87             .52         


               X_U3B.x_lm358.qx 
               PNP             
       LEVEL    1            
          IS  800.000000E-18 
          BF  166.7          
          NF    1            
          BR    1            
          NR    1            
         ISS    0            
          RE    0            
          RC    0            
         CJE    0            
         VJE     .75         
         CJC    0            
         VJC     .75         
         MJC     .33         
        XCJC    1            
         CJS    0            
         VJS     .75         
          KF    0            
          AF    1            
          CN    2.2          
           D     .52         


**** 03/19/22 17:33:43 ******* PSpice Lite (March 2016) ******* ID# 10813 ****

 ** Profile: "SCHEMATIC1-bpt3_1"  [ D:\Practicas\E_General\Termometro_Final-PSpiceFiles\SCHEMATIC1\bpt3_1.sim ] 


 ****     Current Controlled Switch MODEL PARAMETERS


******************************************************************************




               X_U1B.x_lm358.sw2 
         RON    1            
        ROFF   10.000000E+06 
         ION    0            
        IOFF   -1.000000E-06 


               X_U1B.x_lm358.sw1 
         RON    1            
        ROFF   10.000000E+06 
         ION   -1.000000E-06 
        IOFF    0            


               X_U1B.x_lm358.sw3 
         RON    1            
        ROFF   10.000000E+06 
         ION   -1.000000E-06 
        IOFF    0            


               X_U1B.x_lm358.sw4 
         RON    1            
        ROFF   10.000000E+06 
         ION    0            
        IOFF   -1.000000E-06 


               X_U3B.x_lm358.sw2 
         RON    1            
        ROFF   10.000000E+06 
         ION    0            
        IOFF   -1.000000E-06 


               X_U3B.x_lm358.sw1 
         RON    1            
        ROFF   10.000000E+06 
         ION   -1.000000E-06 
        IOFF    0            


               X_U3B.x_lm358.sw3 
         RON    1            
        ROFF   10.000000E+06 
         ION   -1.000000E-06 
        IOFF    0            


               X_U3B.x_lm358.sw4 
         RON    1            
        ROFF   10.000000E+06 
         ION    0            
        IOFF   -1.000000E-06 


**** 03/19/22 17:33:43 ******* PSpice Lite (March 2016) ******* ID# 10813 ****

 ** Profile: "SCHEMATIC1-bpt3_1"  [ D:\Practicas\E_General\Termometro_Final-PSpiceFiles\SCHEMATIC1\bpt3_1.sim ] 


 ****     SMALL SIGNAL BIAS SOLUTION       TEMPERATURE =   27.000 DEG C


******************************************************************************



 NODE   VOLTAGE     NODE   VOLTAGE     NODE   VOLTAGE     NODE   VOLTAGE


(  VC+)    5.0000  (  VS-)   -5.0000  (N05719)    1.3989 (N05787)    1.2348     

(N07963)    2.5858 (N08000)    1.2342 (N09157)    1.8172 (N09382)   -4.9480     

(N09628)     .9279 (N09647)   -1.5654 (N10831)    1.8558 (X_D1.1) 1.602E-06     

(X_D1.2)    -.0022 (X_D1.3)    1.2370 (X_U1B.x_lm358.6)-491.7E-06               

(X_U1B.x_lm358.7)    2.6006           (X_U1B.x_lm358.8)    2.6006               

(X_U1B.x_lm358.9)    0.0000           (X_U1B.x_lm358.a)    4.9997               

(X_U1B.x_lm358.b)-296.1E-06           (X_U3B.x_lm358.6)    1.5014               

(X_U3B.x_lm358.7)   -6.9786           (X_U3B.x_lm358.8)   -6.9786               

(X_U3B.x_lm358.9)    0.0000           (X_U3B.x_lm358.a)     .0406               

(X_U3B.x_lm358.b)   -4.9594           (X_U1B.x_lm358.10)    1.8419              

(X_U1B.x_lm358.11)   -4.9603          (X_U1B.x_lm358.12)   -4.9609              

(X_U1B.x_lm358.13)    1.8280          (X_U1B.x_lm358.14)    1.8282              

(X_U1B.x_lm358.53)    3.5000          (X_U1B.x_lm358.54)   -4.1780              

(X_U1B.x_lm358.90)     .2956          (X_U1B.x_lm358.91)   40.0000              

(X_U1B.x_lm358.92)  -40.0000          (X_U1B.x_lm358.99)    0.0000              

(X_U3B.x_lm358.10)    -.9255          (X_U3B.x_lm358.11)   -5.0000              

(X_U3B.x_lm358.12)   -4.9201          (X_U3B.x_lm358.13)    -.9255              

(X_U3B.x_lm358.14)    -.9535          (X_U3B.x_lm358.53)    3.5000              

(X_U3B.x_lm358.54)   -4.1780          (X_U3B.x_lm358.90)  -40.6130              

(X_U3B.x_lm358.91)   40.0000          (X_U3B.x_lm358.92)  -40.0000              

(X_U3B.x_lm358.99)    0.0000          




    VOLTAGE SOURCE CURRENTS
    NAME         CURRENT

    V_V1        -4.742E-02
    V_V2        -3.606E-02
    X_U1B.x_lm358.vb  -4.917E-09
    X_U1B.x_lm358.vc   9.150E-13
    X_U1B.x_lm358.ve   7.336E-12
    X_U1B.x_lm358.vlim   2.956E-04
    X_U1B.x_lm358.vlp  -3.971E-11
    X_U1B.x_lm358.vln  -4.030E-11
    X_U3B.x_lm358.vb   1.501E-05
    X_U3B.x_lm358.vc   8.449E-12
    X_U3B.x_lm358.ve  -6.787E-03
    X_U3B.x_lm358.vlim  -4.061E-02
    X_U3B.x_lm358.vlp  -8.061E-11
    X_U3B.x_lm358.vln   1.557E-05

    TOTAL POWER DISSIPATION   4.22E-01  WATTS



          JOB CONCLUDED

**** 03/19/22 17:33:43 ******* PSpice Lite (March 2016) ******* ID# 10813 ****

 ** Profile: "SCHEMATIC1-bpt3_1"  [ D:\Practicas\E_General\Termometro_Final-PSpiceFiles\SCHEMATIC1\bpt3_1.sim ] 


 ****     JOB STATISTICS SUMMARY


******************************************************************************



  Total job time (using Solver 1)   =         .03
