
**** 03/19/22 20:07:42 ******* PSpice Lite (March 2016) ******* ID# 10813 ****

 ** Profile: "SCHEMATIC1-B1"  [ D:\Practicas\E_General\p-PSpiceFiles\SCHEMATIC1\B1.sim ] 


 ****     CIRCUIT DESCRIPTION


******************************************************************************




** Creating circuit file "B1.cir" 
** WARNING: THIS AUTOMATICALLY GENERATED FILE MAY BE OVERWRITTEN BY SUBSEQUENT SIMULATIONS

*Libraries: 
* Profile Libraries :
* Local Libraries :
* From [PSPICE NETLIST] section of C:\SPB_DATA\cdssetup\OrCAD_PSpice\17.2.0\PSpice.ini file:
.lib "nomd.lib" 

*Analysis directives: 
.TEMP -70
.OPTIONS ADVCONV
.PROBE64 V(alias(*)) I(alias(*)) W(alias(*)) D(alias(*)) NOISE(alias(*)) 
.INC "..\SCHEMATIC1.net" 



**** INCLUDING SCHEMATIC1.net ****
* source P
V_V1         VC+ 0 5
D_D2         N03927 N03605 D1N4148 
R_R2         0 N03605  1.2k TC=0,0 
R_R3         0 N03605  1.2k TC=0,0 
R_R1         N03605 VC+  188.2k TC=0,0 
X_U2B         N03999 N03779 VC+ VS- N03789 LM358
X_D1         0 N03605 LM385 
V_V2         0 VS- 5
R_R7         N03999 0  1k TC=0,0 
R_R5         N03989 N03999  1k TC=0,0 
R_R4         N03927 N03779  1k TC=0,0 
R_R6         N03779 N03789  1k TC=0,0 
D_D3         N03989 N03605 D1N4148 

**** RESUMING B1.cir ****
.END

**** 03/19/22 20:07:42 ******* PSpice Lite (March 2016) ******* ID# 10813 ****

 ** Profile: "SCHEMATIC1-B1"  [ D:\Practicas\E_General\p-PSpiceFiles\SCHEMATIC1\B1.sim ] 


 ****     Diode MODEL PARAMETERS


******************************************************************************




               D1N4148         X_D1.DF         
          IS    2.682000E-09   39.120000E-15 
           N    1.836            .9983       
         ISR    1.565000E-09                 
         IKF     .04417                      
          BV  100                            
         IBV  100.000000E-06                 
          RS     .5664         12.18         
          TT   11.540000E-09                 
         CJO    4.000000E-12                 
          VJ     .5                          
           M     .3333                       


               X_U2B.x_lm358.dx 
          IS  800.000000E-18 
          RS    1            


               X_U2B.x_lm358.dy 
          IS  800.000000E-18 
          RS    1.000000E-03 
         CJO   10.000000E-12 


**** 03/19/22 20:07:42 ******* PSpice Lite (March 2016) ******* ID# 10813 ****

 ** Profile: "SCHEMATIC1-B1"  [ D:\Practicas\E_General\p-PSpiceFiles\SCHEMATIC1\B1.sim ] 


 ****     BJT MODEL PARAMETERS


******************************************************************************




               X_U2B.x_lm358.qx 
               PNP             
       LEVEL    1            
          IS  800.000000E-18 
          BF  166.7          
          NF    1            
          BR    1            
          NR    1            
         ISS    0            
          RE    0            
          RC    0            
         CJE    0            
         VJE     .75         
         CJC    0            
         VJC     .75         
         MJC     .33         
        XCJC    1            
         CJS    0            
         VJS     .75         
          KF    0            
          AF    1            
          CN    2.2          
           D     .52         


**** 03/19/22 20:07:42 ******* PSpice Lite (March 2016) ******* ID# 10813 ****

 ** Profile: "SCHEMATIC1-B1"  [ D:\Practicas\E_General\p-PSpiceFiles\SCHEMATIC1\B1.sim ] 


 ****     Current Controlled Switch MODEL PARAMETERS


******************************************************************************




               X_U2B.x_lm358.sw2 
         RON    1            
        ROFF   10.000000E+06 
         ION    0            
        IOFF   -1.000000E-06 


               X_U2B.x_lm358.sw1 
         RON    1            
        ROFF   10.000000E+06 
         ION   -1.000000E-06 
        IOFF    0            


               X_U2B.x_lm358.sw3 
         RON    1            
        ROFF   10.000000E+06 
         ION   -1.000000E-06 
        IOFF    0            


               X_U2B.x_lm358.sw4 
         RON    1            
        ROFF   10.000000E+06 
         ION    0            
        IOFF   -1.000000E-06 


**** 03/19/22 20:07:42 ******* PSpice Lite (March 2016) ******* ID# 10813 ****

 ** Profile: "SCHEMATIC1-B1"  [ D:\Practicas\E_General\p-PSpiceFiles\SCHEMATIC1\B1.sim ] 


 ****     TEMPERATURE-ADJUSTED VALUES      TEMPERATURE =  -70.000 DEG C


******************************************************************************




 **** DIODE MODEL PARAMETERS

                   D1N4148        X_D1.DF    X_U2B.x_lm358.dy

         IS        2.015E-14      1.474E-23      3.127E-25  
         VJ        7.421E-01      1.081E+00      1.081E+00  
        CJO        3.303E-12      0.000E+00      9.403E-12  
         RS        5.664E-01      1.218E+01      1.000E-03  
        IKF        4.417E-02      0.000E+00      0.000E+00  
         BV        1.000E+02  

               X_U2B.x_lm358.dx

         IS        3.127E-25  
         VJ        1.081E+00  
        CJO        0.000E+00  
         RS        1.000E+00  
        IKF        0.000E+00  
         BV                   


 **** BJT MODEL PARAMETERS

               X_U2B.x_lm358.qx

         BF        1.667E+02  
        ISE        0.000E+00  
        VJE        9.113E-01  
        CJE        0.000E+00  
         RE        0.000E+00  
         RB        0.000E+00  
         BR        1.000E+00  
        ISC        0.000E+00  
        VJC        9.113E-01  
        CJC        0.000E+00  
         RC        0.000E+00  
        RBM        0.000E+00  
         IS        3.127E-25  
        ISS        0.000E+00  
        VJS        9.113E-01  
        CJS        0.000E+00  
      GAMMA        1.000E-11  
        RCO        0.000E+00  
         VO        1.000E+01  


 **** RESISTORS

                X_D1.RBV < >                                

          R        1.233E+03  



**** 03/19/22 20:07:42 ******* PSpice Lite (March 2016) ******* ID# 10813 ****

 ** Profile: "SCHEMATIC1-B1"  [ D:\Practicas\E_General\p-PSpiceFiles\SCHEMATIC1\B1.sim ] 


 ****     SMALL SIGNAL BIAS SOLUTION       TEMPERATURE =  -70.000 DEG C


******************************************************************************



 NODE   VOLTAGE     NODE   VOLTAGE     NODE   VOLTAGE     NODE   VOLTAGE


(  VC+)    5.0000  (  VS-)   -5.0000  (N03605)     .0159 (N03779)-154.3E-06     

(N03789)-199.3E-06 (N03927)-154.3E-06 (N03989) 44.67E-06 (N03999) 44.67E-06     

(X_D1.1)-124.1E-15 (X_D1.2)   -1.2170 (X_D1.3)    1.2328                        

(X_U2B.x_lm358.6) 37.87E-09           (X_U2B.x_lm358.7)-201.5E-06               

(X_U2B.x_lm358.8)-201.5E-06           (X_U2B.x_lm358.9)    0.0000               

(X_U2B.x_lm358.a)    5.0000           (X_U2B.x_lm358.b)-554.9E-09               

(X_U2B.x_lm358.10)     .7949          (X_U2B.x_lm358.11)   -4.9602              

(X_U2B.x_lm358.12)   -4.9605          (X_U2B.x_lm358.13)     .7810              

(X_U2B.x_lm358.14)     .7811          (X_U2B.x_lm358.53)    3.5000              

(X_U2B.x_lm358.54)   -4.1780          (X_U2B.x_lm358.90)-44.95E-06              

(X_U2B.x_lm358.91)   40.0000          (X_U2B.x_lm358.92)  -40.0000              

(X_U2B.x_lm358.99)    0.0000          




    VOLTAGE SOURCE CURRENTS
    NAME         CURRENT

    V_V1        -1.143E-03
    V_V2        -1.117E-03
    X_U2B.x_lm358.vb   3.787E-13
    X_U2B.x_lm358.vc   3.500E-12
    X_U2B.x_lm358.ve   4.750E-12
    X_U2B.x_lm358.vlim  -4.495E-08
    X_U2B.x_lm358.vlp  -4.000E-11
    X_U2B.x_lm358.vln  -4.000E-11

    TOTAL POWER DISSIPATION   1.13E-02  WATTS



          JOB CONCLUDED

**** 03/19/22 20:07:42 ******* PSpice Lite (March 2016) ******* ID# 10813 ****

 ** Profile: "SCHEMATIC1-B1"  [ D:\Practicas\E_General\p-PSpiceFiles\SCHEMATIC1\B1.sim ] 


 ****     JOB STATISTICS SUMMARY


******************************************************************************



  Total job time (using Solver 1)   =         .02
