
**** 03/18/22 14:23:53 ******* PSpice Lite (March 2016) ******* ID# 10813 ****

 ** Profile: "SCHEMATIC1-bias_termometro1_2"  [ D:\Practicas\E_General\Termometro3-PSpiceFiles\SCHEMATIC1\bias_termometro1_2.sim ] 


 ****     CIRCUIT DESCRIPTION


******************************************************************************




** Creating circuit file "bias_termometro1_2.cir" 
** WARNING: THIS AUTOMATICALLY GENERATED FILE MAY BE OVERWRITTEN BY SUBSEQUENT SIMULATIONS

*Libraries: 
* Profile Libraries :
* Local Libraries :
* From [PSPICE NETLIST] section of C:\SPB_DATA\cdssetup\OrCAD_PSpice\17.2.0\PSpice.ini file:
.lib "nomd.lib" 

*Analysis directives: 
.TEMP -70 -10 30
.OPTIONS ADVCONV
.PROBE64 V(alias(*)) I(alias(*)) W(alias(*)) D(alias(*)) NOISE(alias(*)) 
.INC "..\SCHEMATIC1.net" 



**** INCLUDING SCHEMATIC1.net ****
* source TERMOMETRO3
V_V1         VCC 0 5
V_V2         VSS 0 5
X_U2A         N00806 N00502 VCC VSS N00494 LM358
D_D1         0 N00502 D1N4148 
R_R3         N00502 N00498  1k TC=0,0 
Q_Q1         VCC N00494 N00498 Q2N3904
V_V3         N00806 0 1.202Vdc

**** RESUMING bias_termometro1_2.cir ****
.END

**** 03/18/22 14:23:53 ******* PSpice Lite (March 2016) ******* ID# 10813 ****

 ** Profile: "SCHEMATIC1-bias_termometro1_2"  [ D:\Practicas\E_General\Termometro3-PSpiceFiles\SCHEMATIC1\bias_termometro1_2.sim ] 


 ****     Diode MODEL PARAMETERS


******************************************************************************




               D1N4148         X_U2A.x_lm358.dx 
          IS    2.682000E-09  800.000000E-18 
           N    1.836                        
         ISR    1.565000E-09                 
         IKF     .04417                      
          BV  100                            
         IBV  100.000000E-06                 
          RS     .5664          1            
          TT   11.540000E-09                 
         CJO    4.000000E-12                 
          VJ     .5                          
           M     .3333                       


               X_U2A.x_lm358.dy 
          IS  800.000000E-18 
          RS    1.000000E-03 
         CJO   10.000000E-12 


**** 03/18/22 14:23:53 ******* PSpice Lite (March 2016) ******* ID# 10813 ****

 ** Profile: "SCHEMATIC1-bias_termometro1_2"  [ D:\Practicas\E_General\Termometro3-PSpiceFiles\SCHEMATIC1\bias_termometro1_2.sim ] 


 ****     BJT MODEL PARAMETERS


******************************************************************************




               Q2N3904         X_U2A.x_lm358.qx 
               NPN             PNP             
       LEVEL    1               1            
          IS    6.734000E-15  800.000000E-18 
          BF  416.4           166.7          
          NF    1               1            
         VAF   74.03                         
         IKF     .06678                      
         ISE    6.734000E-15                 
          NE    1.259                        
          BR     .7371          1            
          NR    1               1            
         ISS    0               0            
          RB   10                            
          RE    0               0            
          RC    1               0            
         CJE    4.493000E-12    0            
         VJE     .75             .75         
         MJE     .2593                       
         CJC    3.638000E-12    0            
         VJC     .75             .75         
         MJC     .3085           .33         
        XCJC    1               1            
         CJS    0               0            
         VJS     .75             .75         
          TF  301.200000E-12                 
         XTF    2                            
         VTF    4                            
         ITF     .4                          
          TR  239.500000E-09                 
         XTB    1.5                          
          KF    0               0            
          AF    1               1            
          CN    2.42            2.2          
           D     .87             .52         


**** 03/18/22 14:23:53 ******* PSpice Lite (March 2016) ******* ID# 10813 ****

 ** Profile: "SCHEMATIC1-bias_termometro1_2"  [ D:\Practicas\E_General\Termometro3-PSpiceFiles\SCHEMATIC1\bias_termometro1_2.sim ] 


 ****     Current Controlled Switch MODEL PARAMETERS


******************************************************************************




               X_U2A.x_lm358.sw2 
         RON    1            
        ROFF   10.000000E+06 
         ION    0            
        IOFF   -1.000000E-06 


               X_U2A.x_lm358.sw1 
         RON    1            
        ROFF   10.000000E+06 
         ION   -1.000000E-06 
        IOFF    0            


               X_U2A.x_lm358.sw3 
         RON    1            
        ROFF   10.000000E+06 
         ION   -1.000000E-06 
        IOFF    0            


               X_U2A.x_lm358.sw4 
         RON    1            
        ROFF   10.000000E+06 
         ION    0            
        IOFF   -1.000000E-06 


**** 03/18/22 14:23:53 ******* PSpice Lite (March 2016) ******* ID# 10813 ****

 ** Profile: "SCHEMATIC1-bias_termometro1_2"  [ D:\Practicas\E_General\Termometro3-PSpiceFiles\SCHEMATIC1\bias_termometro1_2.sim ] 


 ****     TEMPERATURE-ADJUSTED VALUES      TEMPERATURE =  -70.000 DEG C


******************************************************************************




 **** DIODE MODEL PARAMETERS

                   D1N4148    X_U2A.x_lm358.dy
                                             X_U2A.x_lm358.dx

         IS        2.015E-14      3.127E-25      3.127E-25  
         VJ        7.421E-01      1.081E+00      1.081E+00  
        CJO        3.303E-12      9.403E-12      0.000E+00  
         RS        5.664E-01      1.000E-03      1.000E+00  
        IKF        4.417E-02      0.000E+00      0.000E+00  
         BV        1.000E+02  


 **** BJT MODEL PARAMETERS

                   Q2N3904    X_U2A.x_lm358.qx

         BF        2.319E+02      1.667E+02  
        ISE        4.073E-22      0.000E+00  
        VJE        9.113E-01      9.113E-01  
        CJE        4.197E-12      0.000E+00  
         RE        0.000E+00      0.000E+00  
         RB        1.000E+01      0.000E+00  
         BR        4.104E-01      1.000E+00  
        ISC        0.000E+00      0.000E+00  
        VJC        9.113E-01      9.113E-01  
        CJC        3.353E-12      0.000E+00  
         RC        1.000E+00      0.000E+00  
        RBM        1.000E+01      0.000E+00  
         IS        2.632E-24      3.127E-25  
        ISS        0.000E+00      0.000E+00  
        VJS        9.113E-01      9.113E-01  
        CJS        0.000E+00      0.000E+00  
      GAMMA        1.000E-11      1.000E-11  
        RCO        0.000E+00      0.000E+00  
         VO        1.000E+01      1.000E+01  


**** 03/18/22 14:23:53 ******* PSpice Lite (March 2016) ******* ID# 10813 ****

 ** Profile: "SCHEMATIC1-bias_termometro1_2"  [ D:\Practicas\E_General\Termometro3-PSpiceFiles\SCHEMATIC1\bias_termometro1_2.sim ] 


 ****     SMALL SIGNAL BIAS SOLUTION       TEMPERATURE =  -70.000 DEG C


******************************************************************************



 NODE   VOLTAGE     NODE   VOLTAGE     NODE   VOLTAGE     NODE   VOLTAGE


(  VCC)    5.0000  (  VSS)    5.0000  (N00494)    4.6610 (N00498)    4.9503     

(N00502)    4.9503 (N00806)    1.2020 (X_U2A.x_lm358.6)  -55.4580               

(X_U2A.x_lm358.7)    6.7039           (X_U2A.x_lm358.8)    6.7039               

(X_U2A.x_lm358.9)    0.0000           (X_U2A.x_lm358.a)    4.9591               

(X_U2A.x_lm358.b)    -.0409           (X_U2A.x_lm358.10)    2.0875              

(X_U2A.x_lm358.11)    5.0000          (X_U2A.x_lm358.12)    2.0589              

(X_U2A.x_lm358.13)    2.0875          (X_U2A.x_lm358.14)    2.0592              

(X_U2A.x_lm358.53)    3.5000          (X_U2A.x_lm358.54)    5.8220              

(X_U2A.x_lm358.90)   40.8580          (X_U2A.x_lm358.91)   40.0000              

(X_U2A.x_lm358.92)  -40.0000          (X_U2A.x_lm358.99)    5.0000          




    VOLTAGE SOURCE CURRENTS
    NAME         CURRENT

    V_V1         9.374E+01
    V_V2        -9.374E+01
    V_V3         5.697E-04
    X_U2A.x_lm358.vb  -5.546E-04
    X_U2A.x_lm358.vc  -9.378E+01
    X_U2A.x_lm358.ve  -9.374E+01
    X_U2A.x_lm358.vlim   4.086E-02
    X_U2A.x_lm358.vlp   5.864E-04
    X_U2A.x_lm358.vln  -8.086E-11

    TOTAL POWER DISSIPATION   2.18E+02  WATTS


**** 03/18/22 14:23:53 ******* PSpice Lite (March 2016) ******* ID# 10813 ****

 ** Profile: "SCHEMATIC1-bias_termometro1_2"  [ D:\Practicas\E_General\Termometro3-PSpiceFiles\SCHEMATIC1\bias_termometro1_2.sim ] 


 ****     TEMPERATURE-ADJUSTED VALUES      TEMPERATURE =  -10.000 DEG C


******************************************************************************




 **** DIODE MODEL PARAMETERS

                   D1N4148    X_U2A.x_lm358.dy
                                             X_U2A.x_lm358.dx

         IS        8.086E-11      1.291E-18      1.291E-18  
         VJ        5.942E-01      1.033E+00      1.033E+00  
        CJO        3.729E-12      9.763E-12      0.000E+00  
         RS        5.664E-01      1.000E-03      1.000E+00  
        IKF        4.417E-02      0.000E+00      0.000E+00  
         BV        1.000E+02  


 **** BJT MODEL PARAMETERS

                   Q2N3904    X_U2A.x_lm358.qx

         BF        3.418E+02      1.667E+02  
        ISE        4.969E-17      0.000E+00  
        VJE        8.134E-01      8.134E-01  
        CJE        4.377E-12      0.000E+00  
         RE        0.000E+00      0.000E+00  
         RB        1.000E+01      0.000E+00  
         BR        6.051E-01      1.000E+00  
        ISC        0.000E+00      0.000E+00  
        VJC        8.134E-01      8.134E-01  
        CJC        3.527E-12      0.000E+00  
         RC        1.000E+00      0.000E+00  
        RBM        1.000E+01      0.000E+00  
         IS        1.087E-17      1.291E-18  
        ISS        0.000E+00      0.000E+00  
        VJS        8.134E-01      8.134E-01  
        CJS        0.000E+00      0.000E+00  
      GAMMA        1.000E-11      1.000E-11  
        RCO        0.000E+00      0.000E+00  
         VO        1.000E+01      1.000E+01  


**** 03/18/22 14:23:53 ******* PSpice Lite (March 2016) ******* ID# 10813 ****

 ** Profile: "SCHEMATIC1-bias_termometro1_2"  [ D:\Practicas\E_General\Termometro3-PSpiceFiles\SCHEMATIC1\bias_termometro1_2.sim ] 


 ****     SMALL SIGNAL BIAS SOLUTION       TEMPERATURE =  -10.000 DEG C


******************************************************************************



 NODE   VOLTAGE     NODE   VOLTAGE     NODE   VOLTAGE     NODE   VOLTAGE


(  VCC)    5.0000  (  VSS)    5.0000  (N00494)    4.6610 (N00498)    4.5713     

(N00502)    4.5713 (N00806)    1.2020 (X_U2A.x_lm358.6)  -57.1870               

(X_U2A.x_lm358.7)    6.6994           (X_U2A.x_lm358.8)    6.6994               

(X_U2A.x_lm358.9)    0.0000           (X_U2A.x_lm358.a)    4.9592               

(X_U2A.x_lm358.b)    -.0408           (X_U2A.x_lm358.10)    1.9959              

(X_U2A.x_lm358.11)    5.0000          (X_U2A.x_lm358.12)    1.9672              

(X_U2A.x_lm358.13)    1.9959          (X_U2A.x_lm358.14)    1.9676              

(X_U2A.x_lm358.53)    3.5000          (X_U2A.x_lm358.54)    5.8220              

(X_U2A.x_lm358.90)   40.7670          (X_U2A.x_lm358.91)   40.0000              

(X_U2A.x_lm358.92)  -40.0000          (X_U2A.x_lm358.99)    5.0000          




    VOLTAGE SOURCE CURRENTS
    NAME         CURRENT

    V_V1         1.186E+02
    V_V2        -1.186E+02
    V_V3         5.870E-04
    X_U2A.x_lm358.vb  -5.719E-04
    X_U2A.x_lm358.vc  -1.187E+02
    X_U2A.x_lm358.ve  -1.186E+02
    X_U2A.x_lm358.vlim   4.077E-02
    X_U2A.x_lm358.vlp   6.047E-04
    X_U2A.x_lm358.vln  -8.077E-11

    TOTAL POWER DISSIPATION   2.76E+02  WATTS


**** 03/18/22 14:23:53 ******* PSpice Lite (March 2016) ******* ID# 10813 ****

 ** Profile: "SCHEMATIC1-bias_termometro1_2"  [ D:\Practicas\E_General\Termometro3-PSpiceFiles\SCHEMATIC1\bias_termometro1_2.sim ] 


 ****     TEMPERATURE-ADJUSTED VALUES      TEMPERATURE =   30.000 DEG C


******************************************************************************




 **** DIODE MODEL PARAMETERS

                   D1N4148    X_U2A.x_lm358.dy
                                             X_U2A.x_lm358.dx

         IS        3.435E-09      1.260E-15      1.260E-15  
         VJ        4.923E-01      9.973E-01      9.973E-01  
        CJO        4.022E-12      1.002E-11      0.000E+00  
         RS        5.664E-01      1.000E-03      1.000E+00  
        IKF        4.417E-02      0.000E+00      0.000E+00  
         BV        1.000E+02  


 **** BJT MODEL PARAMETERS

                   Q2N3904    X_U2A.x_lm358.qx

         BF        4.227E+02      1.667E+02  
        ISE        9.519E-15      0.000E+00  
        VJE        7.448E-01      7.448E-01  
        CJE        4.503E-12      0.000E+00  
         RE        0.000E+00      0.000E+00  
         RB        1.000E+01      0.000E+00  
         BR        7.482E-01      1.000E+00  
        ISC        0.000E+00      0.000E+00  
        VJC        7.448E-01      7.448E-01  
        CJC        3.647E-12      0.000E+00  
         RC        1.000E+00      0.000E+00  
        RBM        1.000E+01      0.000E+00  
         IS        1.061E-14      1.260E-15  
        ISS        0.000E+00      0.000E+00  
        VJS        7.448E-01      7.448E-01  
        CJS        0.000E+00      0.000E+00  
      GAMMA        1.000E-11      1.000E-11  
        RCO        0.000E+00      0.000E+00  
         VO        1.000E+01      1.000E+01  


**** 03/18/22 14:23:53 ******* PSpice Lite (March 2016) ******* ID# 10813 ****

 ** Profile: "SCHEMATIC1-bias_termometro1_2"  [ D:\Practicas\E_General\Termometro3-PSpiceFiles\SCHEMATIC1\bias_termometro1_2.sim ] 


 ****     SMALL SIGNAL BIAS SOLUTION       TEMPERATURE =   30.000 DEG C


******************************************************************************



 NODE   VOLTAGE     NODE   VOLTAGE     NODE   VOLTAGE     NODE   VOLTAGE


(  VCC)    5.0000  (  VSS)    5.0000  (N00494)    4.6610 (N00498)    4.5917     

(N00502)    4.5917 (N00806)    1.2020 (X_U2A.x_lm358.6)  -58.3720               

(X_U2A.x_lm358.7)    6.6962           (X_U2A.x_lm358.8)    6.6962               

(X_U2A.x_lm358.9)    0.0000           (X_U2A.x_lm358.a)    4.9593               

(X_U2A.x_lm358.b)    -.0407           (X_U2A.x_lm358.10)    1.9330              

(X_U2A.x_lm358.11)    4.9999          (X_U2A.x_lm358.12)    1.9042              

(X_U2A.x_lm358.13)    1.9330          (X_U2A.x_lm358.14)    1.9047              

(X_U2A.x_lm358.53)    3.5000          (X_U2A.x_lm358.54)    5.8220              

(X_U2A.x_lm358.90)   40.7040          (X_U2A.x_lm358.91)   40.0000              

(X_U2A.x_lm358.92)  -40.0000          (X_U2A.x_lm358.99)    5.0000          




    VOLTAGE SOURCE CURRENTS
    NAME         CURRENT

    V_V1         1.364E+02
    V_V2        -1.364E+02
    V_V3         5.989E-04
    X_U2A.x_lm358.vb  -5.837E-04
    X_U2A.x_lm358.vc  -1.364E+02
    X_U2A.x_lm358.ve  -1.364E+02
    X_U2A.x_lm358.vlim   4.070E-02
    X_U2A.x_lm358.vlp   6.173E-04
    X_U2A.x_lm358.vln  -8.071E-11

    TOTAL POWER DISSIPATION   3.17E+02  WATTS



          JOB CONCLUDED

**** 03/18/22 14:23:53 ******* PSpice Lite (March 2016) ******* ID# 10813 ****

 ** Profile: "SCHEMATIC1-bias_termometro1_2"  [ D:\Practicas\E_General\Termometro3-PSpiceFiles\SCHEMATIC1\bias_termometro1_2.sim ] 


 ****     JOB STATISTICS SUMMARY


******************************************************************************



  Total job time (using Solver 1)   =         .06
