
**** 03/18/22 14:29:38 ******* PSpice Lite (March 2016) ******* ID# 10813 ****

 ** Profile: "SCHEMATIC1-bias_termometro1_4"  [ D:\Practicas\E_General\Termometro3-PSpiceFiles\SCHEMATIC1\bias_termometro1_4.sim ] 


 ****     CIRCUIT DESCRIPTION


******************************************************************************




** Creating circuit file "bias_termometro1_4.cir" 
** WARNING: THIS AUTOMATICALLY GENERATED FILE MAY BE OVERWRITTEN BY SUBSEQUENT SIMULATIONS

*Libraries: 
* Profile Libraries :
* Local Libraries :
* From [PSPICE NETLIST] section of C:\SPB_DATA\cdssetup\OrCAD_PSpice\17.2.0\PSpice.ini file:
.lib "nomd.lib" 

*Analysis directives: 
.TEMP -70 -10 30
.OPTIONS ADVCONV
.PROBE64 V(alias(*)) I(alias(*)) W(alias(*)) D(alias(*)) NOISE(alias(*)) 
.INC "..\SCHEMATIC1.net" 



**** INCLUDING SCHEMATIC1.net ****
* source TERMOMETRO3
V_V1         VCC 0 5
V_V2         0 VSS 5
X_U2A         N00806 N00502 VCC VSS N00922 LM358
D_D1         0 N00502 D1N4148 
R_R3         N00502 N00922  1k TC=0,0 
V_V3         N00806 0 1.202Vdc

**** RESUMING bias_termometro1_4.cir ****
.END

**** 03/18/22 14:29:38 ******* PSpice Lite (March 2016) ******* ID# 10813 ****

 ** Profile: "SCHEMATIC1-bias_termometro1_4"  [ D:\Practicas\E_General\Termometro3-PSpiceFiles\SCHEMATIC1\bias_termometro1_4.sim ] 


 ****     Diode MODEL PARAMETERS


******************************************************************************




               D1N4148         X_U2A.x_lm358.dx 
          IS    2.682000E-09  800.000000E-18 
           N    1.836                        
         ISR    1.565000E-09                 
         IKF     .04417                      
          BV  100                            
         IBV  100.000000E-06                 
          RS     .5664          1            
          TT   11.540000E-09                 
         CJO    4.000000E-12                 
          VJ     .5                          
           M     .3333                       


               X_U2A.x_lm358.dy 
          IS  800.000000E-18 
          RS    1.000000E-03 
         CJO   10.000000E-12 


**** 03/18/22 14:29:38 ******* PSpice Lite (March 2016) ******* ID# 10813 ****

 ** Profile: "SCHEMATIC1-bias_termometro1_4"  [ D:\Practicas\E_General\Termometro3-PSpiceFiles\SCHEMATIC1\bias_termometro1_4.sim ] 


 ****     BJT MODEL PARAMETERS


******************************************************************************




               X_U2A.x_lm358.qx 
               PNP             
       LEVEL    1            
          IS  800.000000E-18 
          BF  166.7          
          NF    1            
          BR    1            
          NR    1            
         ISS    0            
          RE    0            
          RC    0            
         CJE    0            
         VJE     .75         
         CJC    0            
         VJC     .75         
         MJC     .33         
        XCJC    1            
         CJS    0            
         VJS     .75         
          KF    0            
          AF    1            
          CN    2.2          
           D     .52         


**** 03/18/22 14:29:38 ******* PSpice Lite (March 2016) ******* ID# 10813 ****

 ** Profile: "SCHEMATIC1-bias_termometro1_4"  [ D:\Practicas\E_General\Termometro3-PSpiceFiles\SCHEMATIC1\bias_termometro1_4.sim ] 


 ****     Current Controlled Switch MODEL PARAMETERS


******************************************************************************




               X_U2A.x_lm358.sw2 
         RON    1            
        ROFF   10.000000E+06 
         ION    0            
        IOFF   -1.000000E-06 


               X_U2A.x_lm358.sw1 
         RON    1            
        ROFF   10.000000E+06 
         ION   -1.000000E-06 
        IOFF    0            


               X_U2A.x_lm358.sw3 
         RON    1            
        ROFF   10.000000E+06 
         ION   -1.000000E-06 
        IOFF    0            


               X_U2A.x_lm358.sw4 
         RON    1            
        ROFF   10.000000E+06 
         ION    0            
        IOFF   -1.000000E-06 


**** 03/18/22 14:29:38 ******* PSpice Lite (March 2016) ******* ID# 10813 ****

 ** Profile: "SCHEMATIC1-bias_termometro1_4"  [ D:\Practicas\E_General\Termometro3-PSpiceFiles\SCHEMATIC1\bias_termometro1_4.sim ] 


 ****     TEMPERATURE-ADJUSTED VALUES      TEMPERATURE =  -70.000 DEG C


******************************************************************************




 **** DIODE MODEL PARAMETERS

                   D1N4148    X_U2A.x_lm358.dy
                                             X_U2A.x_lm358.dx

         IS        2.015E-14      3.127E-25      3.127E-25  
         VJ        7.421E-01      1.081E+00      1.081E+00  
        CJO        3.303E-12      9.403E-12      0.000E+00  
         RS        5.664E-01      1.000E-03      1.000E+00  
        IKF        4.417E-02      0.000E+00      0.000E+00  
         BV        1.000E+02  


 **** BJT MODEL PARAMETERS

               X_U2A.x_lm358.qx

         BF        1.667E+02  
        ISE        0.000E+00  
        VJE        9.113E-01  
        CJE        0.000E+00  
         RE        0.000E+00  
         RB        0.000E+00  
         BR        1.000E+00  
        ISC        0.000E+00  
        VJC        9.113E-01  
        CJC        0.000E+00  
         RC        0.000E+00  
        RBM        0.000E+00  
         IS        3.127E-25  
        ISS        0.000E+00  
        VJS        9.113E-01  
        CJS        0.000E+00  
      GAMMA        1.000E-11  
        RCO        0.000E+00  
         VO        1.000E+01  


**** 03/18/22 14:29:38 ******* PSpice Lite (March 2016) ******* ID# 10813 ****

 ** Profile: "SCHEMATIC1-bias_termometro1_4"  [ D:\Practicas\E_General\Termometro3-PSpiceFiles\SCHEMATIC1\bias_termometro1_4.sim ] 


 ****     SMALL SIGNAL BIAS SOLUTION       TEMPERATURE =  -70.000 DEG C


******************************************************************************



 NODE   VOLTAGE     NODE   VOLTAGE     NODE   VOLTAGE     NODE   VOLTAGE


(  VCC)    5.0000  (  VSS)   -5.0000  (N00502)    1.2015 (N00806)    1.2020     

(N00922)    1.2014 (X_U2A.x_lm358.6)-226.5E-06                                  

(X_U2A.x_lm358.7)    1.2014           (X_U2A.x_lm358.8)    1.2014               

(X_U2A.x_lm358.9)    0.0000           (X_U2A.x_lm358.a)    5.0000               

(X_U2A.x_lm358.b)-554.7E-09           (X_U2A.x_lm358.10)    1.9965              

(X_U2A.x_lm358.11)   -4.9603          (X_U2A.x_lm358.12)   -4.9609              

(X_U2A.x_lm358.13)    1.9826          (X_U2A.x_lm358.14)    1.9829              

(X_U2A.x_lm358.53)    3.5000          (X_U2A.x_lm358.54)   -4.1780              

(X_U2A.x_lm358.90)-44.90E-06          (X_U2A.x_lm358.91)   40.0000              

(X_U2A.x_lm358.92)  -40.0000          (X_U2A.x_lm358.99)    0.0000          




    VOLTAGE SOURCE CURRENTS
    NAME         CURRENT

    V_V1        -1.117E-03
    V_V2        -1.116E-03
    V_V3         4.417E-08
    X_U2A.x_lm358.vb  -2.265E-09
    X_U2A.x_lm358.vc   2.299E-12
    X_U2A.x_lm358.ve   5.951E-12
    X_U2A.x_lm358.vlim  -4.490E-08
    X_U2A.x_lm358.vlp  -4.000E-11
    X_U2A.x_lm358.vln  -4.000E-11

    TOTAL POWER DISSIPATION   1.12E-02  WATTS


**** 03/18/22 14:29:38 ******* PSpice Lite (March 2016) ******* ID# 10813 ****

 ** Profile: "SCHEMATIC1-bias_termometro1_4"  [ D:\Practicas\E_General\Termometro3-PSpiceFiles\SCHEMATIC1\bias_termometro1_4.sim ] 


 ****     TEMPERATURE-ADJUSTED VALUES      TEMPERATURE =  -10.000 DEG C


******************************************************************************




 **** DIODE MODEL PARAMETERS

                   D1N4148    X_U2A.x_lm358.dy
                                             X_U2A.x_lm358.dx

         IS        8.086E-11      1.291E-18      1.291E-18  
         VJ        5.942E-01      1.033E+00      1.033E+00  
        CJO        3.729E-12      9.763E-12      0.000E+00  
         RS        5.664E-01      1.000E-03      1.000E+00  
        IKF        4.417E-02      0.000E+00      0.000E+00  
         BV        1.000E+02  


 **** BJT MODEL PARAMETERS

               X_U2A.x_lm358.qx

         BF        1.667E+02  
        ISE        0.000E+00  
        VJE        8.134E-01  
        CJE        0.000E+00  
         RE        0.000E+00  
         RB        0.000E+00  
         BR        1.000E+00  
        ISC        0.000E+00  
        VJC        8.134E-01  
        CJC        0.000E+00  
         RC        0.000E+00  
        RBM        0.000E+00  
         IS        1.291E-18  
        ISS        0.000E+00  
        VJS        8.134E-01  
        CJS        0.000E+00  
      GAMMA        1.000E-11  
        RCO        0.000E+00  
         VO        1.000E+01  


**** 03/18/22 14:29:38 ******* PSpice Lite (March 2016) ******* ID# 10813 ****

 ** Profile: "SCHEMATIC1-bias_termometro1_4"  [ D:\Practicas\E_General\Termometro3-PSpiceFiles\SCHEMATIC1\bias_termometro1_4.sim ] 


 ****     SMALL SIGNAL BIAS SOLUTION       TEMPERATURE =  -10.000 DEG C


******************************************************************************



 NODE   VOLTAGE     NODE   VOLTAGE     NODE   VOLTAGE     NODE   VOLTAGE


(  VCC)    5.0000  (  VSS)   -5.0000  (N00502)    1.2014 (N00806)    1.2020     

(N00922)    1.2014 (X_U2A.x_lm358.6)-226.5E-06                                  

(X_U2A.x_lm358.7)    1.2014           (X_U2A.x_lm358.8)    1.2014               

(X_U2A.x_lm358.9)    0.0000           (X_U2A.x_lm358.a)    5.0000               

(X_U2A.x_lm358.b)-554.1E-09           (X_U2A.x_lm358.10)    1.8817              

(X_U2A.x_lm358.11)   -4.9603          (X_U2A.x_lm358.12)   -4.9609              

(X_U2A.x_lm358.13)    1.8678          (X_U2A.x_lm358.14)    1.8681              

(X_U2A.x_lm358.53)    3.5000          (X_U2A.x_lm358.54)   -4.1780              

(X_U2A.x_lm358.90)-44.73E-06          (X_U2A.x_lm358.91)   40.0000              

(X_U2A.x_lm358.92)  -40.0000          (X_U2A.x_lm358.99)    0.0000          




    VOLTAGE SOURCE CURRENTS
    NAME         CURRENT

    V_V1        -1.117E-03
    V_V2        -1.116E-03
    V_V3         4.422E-08
    X_U2A.x_lm358.vb  -2.265E-09
    X_U2A.x_lm358.vc   2.299E-12
    X_U2A.x_lm358.ve   5.951E-12
    X_U2A.x_lm358.vlim  -4.473E-08
    X_U2A.x_lm358.vlp  -4.000E-11
    X_U2A.x_lm358.vln  -4.000E-11

    TOTAL POWER DISSIPATION   1.12E-02  WATTS


**** 03/18/22 14:29:38 ******* PSpice Lite (March 2016) ******* ID# 10813 ****

 ** Profile: "SCHEMATIC1-bias_termometro1_4"  [ D:\Practicas\E_General\Termometro3-PSpiceFiles\SCHEMATIC1\bias_termometro1_4.sim ] 


 ****     TEMPERATURE-ADJUSTED VALUES      TEMPERATURE =   30.000 DEG C


******************************************************************************




 **** DIODE MODEL PARAMETERS

                   D1N4148    X_U2A.x_lm358.dy
                                             X_U2A.x_lm358.dx

         IS        3.435E-09      1.260E-15      1.260E-15  
         VJ        4.923E-01      9.973E-01      9.973E-01  
        CJO        4.022E-12      1.002E-11      0.000E+00  
         RS        5.664E-01      1.000E-03      1.000E+00  
        IKF        4.417E-02      0.000E+00      0.000E+00  
         BV        1.000E+02  


 **** BJT MODEL PARAMETERS

               X_U2A.x_lm358.qx

         BF        1.667E+02  
        ISE        0.000E+00  
        VJE        7.448E-01  
        CJE        0.000E+00  
         RE        0.000E+00  
         RB        0.000E+00  
         BR        1.000E+00  
        ISC        0.000E+00  
        VJC        7.448E-01  
        CJC        0.000E+00  
         RC        0.000E+00  
        RBM        0.000E+00  
         IS        1.260E-15  
        ISS        0.000E+00  
        VJS        7.448E-01  
        CJS        0.000E+00  
      GAMMA        1.000E-11  
        RCO        0.000E+00  
         VO        1.000E+01  


**** 03/18/22 14:29:38 ******* PSpice Lite (March 2016) ******* ID# 10813 ****

 ** Profile: "SCHEMATIC1-bias_termometro1_4"  [ D:\Practicas\E_General\Termometro3-PSpiceFiles\SCHEMATIC1\bias_termometro1_4.sim ] 


 ****     SMALL SIGNAL BIAS SOLUTION       TEMPERATURE =   30.000 DEG C


******************************************************************************



 NODE   VOLTAGE     NODE   VOLTAGE     NODE   VOLTAGE     NODE   VOLTAGE


(  VCC)    5.0000  (  VSS)   -5.0000  (N00502)    1.2014 (N00806)    1.2020     

(N00922)    1.2014 (X_U2A.x_lm358.6)-226.5E-06                                  

(X_U2A.x_lm358.7)    1.2014           (X_U2A.x_lm358.8)    1.2014               

(X_U2A.x_lm358.9)    0.0000           (X_U2A.x_lm358.a)    5.0000               

(X_U2A.x_lm358.b)-533.7E-09           (X_U2A.x_lm358.10)    1.8032              

(X_U2A.x_lm358.11)   -4.9603          (X_U2A.x_lm358.12)   -4.9609              

(X_U2A.x_lm358.13)    1.7893          (X_U2A.x_lm358.14)    1.7895              

(X_U2A.x_lm358.53)    3.5000          (X_U2A.x_lm358.54)   -4.1780              

(X_U2A.x_lm358.90)-38.50E-06          (X_U2A.x_lm358.91)   40.0000              

(X_U2A.x_lm358.92)  -40.0000          (X_U2A.x_lm358.99)    0.0000          




    VOLTAGE SOURCE CURRENTS
    NAME         CURRENT

    V_V1        -1.117E-03
    V_V2        -1.116E-03
    V_V3         4.425E-08
    X_U2A.x_lm358.vb  -2.265E-09
    X_U2A.x_lm358.vc   2.300E-12
    X_U2A.x_lm358.ve   5.952E-12
    X_U2A.x_lm358.vlim  -3.850E-08
    X_U2A.x_lm358.vlp  -4.000E-11
    X_U2A.x_lm358.vln  -4.000E-11

    TOTAL POWER DISSIPATION   1.12E-02  WATTS



          JOB CONCLUDED

**** 03/18/22 14:29:38 ******* PSpice Lite (March 2016) ******* ID# 10813 ****

 ** Profile: "SCHEMATIC1-bias_termometro1_4"  [ D:\Practicas\E_General\Termometro3-PSpiceFiles\SCHEMATIC1\bias_termometro1_4.sim ] 


 ****     JOB STATISTICS SUMMARY


******************************************************************************



  Total job time (using Solver 1)   =         .05
