
**** 03/18/22 14:27:47 ******* PSpice Lite (March 2016) ******* ID# 10813 ****

 ** Profile: "SCHEMATIC1-bias_termometro1_3"  [ D:\Practicas\E_General\Termometro3-PSpiceFiles\SCHEMATIC1\bias_termometro1_3.sim ] 


 ****     CIRCUIT DESCRIPTION


******************************************************************************




** Creating circuit file "bias_termometro1_3.cir" 
** WARNING: THIS AUTOMATICALLY GENERATED FILE MAY BE OVERWRITTEN BY SUBSEQUENT SIMULATIONS

*Libraries: 
* Profile Libraries :
* Local Libraries :
* From [PSPICE NETLIST] section of C:\SPB_DATA\cdssetup\OrCAD_PSpice\17.2.0\PSpice.ini file:
.lib "nomd.lib" 

*Analysis directives: 
.TEMP -70 -10 30
.OPTIONS ADVCONV
.PROBE64 V(alias(*)) I(alias(*)) W(alias(*)) D(alias(*)) NOISE(alias(*)) 
.INC "..\SCHEMATIC1.net" 



**** INCLUDING SCHEMATIC1.net ****
* source TERMOMETRO3
V_V1         VCC 0 5
V_V2         0 VSS 5
X_U2A         N00806 N00502 VCC VSS N00494 LM358
D_D1         0 N00502 D1N4148 
R_R3         N00502 N00498  1k TC=0,0 
Q_Q1         VCC N00494 N00498 Q2N3904
V_V3         N00806 0 1.202Vdc

**** RESUMING bias_termometro1_3.cir ****
.END

**** 03/18/22 14:27:47 ******* PSpice Lite (March 2016) ******* ID# 10813 ****

 ** Profile: "SCHEMATIC1-bias_termometro1_3"  [ D:\Practicas\E_General\Termometro3-PSpiceFiles\SCHEMATIC1\bias_termometro1_3.sim ] 


 ****     Diode MODEL PARAMETERS


******************************************************************************




               D1N4148         X_U2A.x_lm358.dx 
          IS    2.682000E-09  800.000000E-18 
           N    1.836                        
         ISR    1.565000E-09                 
         IKF     .04417                      
          BV  100                            
         IBV  100.000000E-06                 
          RS     .5664          1            
          TT   11.540000E-09                 
         CJO    4.000000E-12                 
          VJ     .5                          
           M     .3333                       


               X_U2A.x_lm358.dy 
          IS  800.000000E-18 
          RS    1.000000E-03 
         CJO   10.000000E-12 


**** 03/18/22 14:27:47 ******* PSpice Lite (March 2016) ******* ID# 10813 ****

 ** Profile: "SCHEMATIC1-bias_termometro1_3"  [ D:\Practicas\E_General\Termometro3-PSpiceFiles\SCHEMATIC1\bias_termometro1_3.sim ] 


 ****     BJT MODEL PARAMETERS


******************************************************************************




               Q2N3904         X_U2A.x_lm358.qx 
               NPN             PNP             
       LEVEL    1               1            
          IS    6.734000E-15  800.000000E-18 
          BF  416.4           166.7          
          NF    1               1            
         VAF   74.03                         
         IKF     .06678                      
         ISE    6.734000E-15                 
          NE    1.259                        
          BR     .7371          1            
          NR    1               1            
         ISS    0               0            
          RB   10                            
          RE    0               0            
          RC    1               0            
         CJE    4.493000E-12    0            
         VJE     .75             .75         
         MJE     .2593                       
         CJC    3.638000E-12    0            
         VJC     .75             .75         
         MJC     .3085           .33         
        XCJC    1               1            
         CJS    0               0            
         VJS     .75             .75         
          TF  301.200000E-12                 
         XTF    2                            
         VTF    4                            
         ITF     .4                          
          TR  239.500000E-09                 
         XTB    1.5                          
          KF    0               0            
          AF    1               1            
          CN    2.42            2.2          
           D     .87             .52         


**** 03/18/22 14:27:47 ******* PSpice Lite (March 2016) ******* ID# 10813 ****

 ** Profile: "SCHEMATIC1-bias_termometro1_3"  [ D:\Practicas\E_General\Termometro3-PSpiceFiles\SCHEMATIC1\bias_termometro1_3.sim ] 


 ****     Current Controlled Switch MODEL PARAMETERS


******************************************************************************




               X_U2A.x_lm358.sw2 
         RON    1            
        ROFF   10.000000E+06 
         ION    0            
        IOFF   -1.000000E-06 


               X_U2A.x_lm358.sw1 
         RON    1            
        ROFF   10.000000E+06 
         ION   -1.000000E-06 
        IOFF    0            


               X_U2A.x_lm358.sw3 
         RON    1            
        ROFF   10.000000E+06 
         ION   -1.000000E-06 
        IOFF    0            


               X_U2A.x_lm358.sw4 
         RON    1            
        ROFF   10.000000E+06 
         ION    0            
        IOFF   -1.000000E-06 


**** 03/18/22 14:27:47 ******* PSpice Lite (March 2016) ******* ID# 10813 ****

 ** Profile: "SCHEMATIC1-bias_termometro1_3"  [ D:\Practicas\E_General\Termometro3-PSpiceFiles\SCHEMATIC1\bias_termometro1_3.sim ] 


 ****     TEMPERATURE-ADJUSTED VALUES      TEMPERATURE =  -70.000 DEG C


******************************************************************************




 **** DIODE MODEL PARAMETERS

                   D1N4148    X_U2A.x_lm358.dy
                                             X_U2A.x_lm358.dx

         IS        2.015E-14      3.127E-25      3.127E-25  
         VJ        7.421E-01      1.081E+00      1.081E+00  
        CJO        3.303E-12      9.403E-12      0.000E+00  
         RS        5.664E-01      1.000E-03      1.000E+00  
        IKF        4.417E-02      0.000E+00      0.000E+00  
         BV        1.000E+02  


 **** BJT MODEL PARAMETERS

                   Q2N3904    X_U2A.x_lm358.qx

         BF        2.319E+02      1.667E+02  
        ISE        4.073E-22      0.000E+00  
        VJE        9.113E-01      9.113E-01  
        CJE        4.197E-12      0.000E+00  
         RE        0.000E+00      0.000E+00  
         RB        1.000E+01      0.000E+00  
         BR        4.104E-01      1.000E+00  
        ISC        0.000E+00      0.000E+00  
        VJC        9.113E-01      9.113E-01  
        CJC        3.353E-12      0.000E+00  
         RC        1.000E+00      0.000E+00  
        RBM        1.000E+01      0.000E+00  
         IS        2.632E-24      3.127E-25  
        ISS        0.000E+00      0.000E+00  
        VJS        9.113E-01      9.113E-01  
        CJS        0.000E+00      0.000E+00  
      GAMMA        1.000E-11      1.000E-11  
        RCO        0.000E+00      0.000E+00  
         VO        1.000E+01      1.000E+01  


**** 03/18/22 14:27:47 ******* PSpice Lite (March 2016) ******* ID# 10813 ****

 ** Profile: "SCHEMATIC1-bias_termometro1_3"  [ D:\Practicas\E_General\Termometro3-PSpiceFiles\SCHEMATIC1\bias_termometro1_3.sim ] 


 ****     SMALL SIGNAL BIAS SOLUTION       TEMPERATURE =  -70.000 DEG C


******************************************************************************



 NODE   VOLTAGE     NODE   VOLTAGE     NODE   VOLTAGE     NODE   VOLTAGE


(  VCC)    5.0000  (  VSS)   -5.0000  (N00494)   -5.1098 (N00498)    1.4136     

(N00502)    1.4136 (N00806)    1.2020 (X_U2A.x_lm358.6)    1.4968               

(X_U2A.x_lm358.7)   -7.1494           (X_U2A.x_lm358.8)   -7.1494               

(X_U2A.x_lm358.9)    0.0000           (X_U2A.x_lm358.a)     .0408               

(X_U2A.x_lm358.b)   -4.9592           (X_U2A.x_lm358.10)    2.0227              

(X_U2A.x_lm358.11)   -5.0000          (X_U2A.x_lm358.12)   -4.9212              

(X_U2A.x_lm358.13)    2.0227          (X_U2A.x_lm358.14)    1.9951              

(X_U2A.x_lm358.53)    3.5000          (X_U2A.x_lm358.54)   -4.1780              

(X_U2A.x_lm358.90)  -40.7920          (X_U2A.x_lm358.91)   40.0000              

(X_U2A.x_lm358.92)  -40.0000          (X_U2A.x_lm358.99)    0.0000          




    VOLTAGE SOURCE CURRENTS
    NAME         CURRENT

    V_V1        -1.117E-03
    V_V2        -1.116E-03
    V_V3         8.906E-08
    X_U2A.x_lm358.vb   1.497E-05
    X_U2A.x_lm358.vc   8.610E-12
    X_U2A.x_lm358.ve  -4.079E-02
    X_U2A.x_lm358.vlim  -4.079E-02
    X_U2A.x_lm358.vlp  -8.079E-11
    X_U2A.x_lm358.vln   1.383E-05

    TOTAL POWER DISSIPATION   4.41E-02  WATTS


**** 03/18/22 14:27:47 ******* PSpice Lite (March 2016) ******* ID# 10813 ****

 ** Profile: "SCHEMATIC1-bias_termometro1_3"  [ D:\Practicas\E_General\Termometro3-PSpiceFiles\SCHEMATIC1\bias_termometro1_3.sim ] 


 ****     TEMPERATURE-ADJUSTED VALUES      TEMPERATURE =  -10.000 DEG C


******************************************************************************




 **** DIODE MODEL PARAMETERS

                   D1N4148    X_U2A.x_lm358.dy
                                             X_U2A.x_lm358.dx

         IS        8.086E-11      1.291E-18      1.291E-18  
         VJ        5.942E-01      1.033E+00      1.033E+00  
        CJO        3.729E-12      9.763E-12      0.000E+00  
         RS        5.664E-01      1.000E-03      1.000E+00  
        IKF        4.417E-02      0.000E+00      0.000E+00  
         BV        1.000E+02  


 **** BJT MODEL PARAMETERS

                   Q2N3904    X_U2A.x_lm358.qx

         BF        3.418E+02      1.667E+02  
        ISE        4.969E-17      0.000E+00  
        VJE        8.134E-01      8.134E-01  
        CJE        4.377E-12      0.000E+00  
         RE        0.000E+00      0.000E+00  
         RB        1.000E+01      0.000E+00  
         BR        6.051E-01      1.000E+00  
        ISC        0.000E+00      0.000E+00  
        VJC        8.134E-01      8.134E-01  
        CJC        3.527E-12      0.000E+00  
         RC        1.000E+00      0.000E+00  
        RBM        1.000E+01      0.000E+00  
         IS        1.087E-17      1.291E-18  
        ISS        0.000E+00      0.000E+00  
        VJS        8.134E-01      8.134E-01  
        CJS        0.000E+00      0.000E+00  
      GAMMA        1.000E-11      1.000E-11  
        RCO        0.000E+00      0.000E+00  
         VO        1.000E+01      1.000E+01  


**** 03/18/22 14:27:47 ******* PSpice Lite (March 2016) ******* ID# 10813 ****

 ** Profile: "SCHEMATIC1-bias_termometro1_3"  [ D:\Practicas\E_General\Termometro3-PSpiceFiles\SCHEMATIC1\bias_termometro1_3.sim ] 


 ****     SMALL SIGNAL BIAS SOLUTION       TEMPERATURE =  -10.000 DEG C


******************************************************************************



 NODE   VOLTAGE     NODE   VOLTAGE     NODE   VOLTAGE     NODE   VOLTAGE


(  VCC)    5.0000  (  VSS)   -5.0000  (N00494)   -5.0395 (N00498)    1.3705     

(N00502)    1.3705 (N00806)    1.2020 (X_U2A.x_lm358.6)    1.4911               

(X_U2A.x_lm358.7)   -7.0735           (X_U2A.x_lm358.8)   -7.0735               

(X_U2A.x_lm358.9)    0.0000           (X_U2A.x_lm358.a)     .0407               

(X_U2A.x_lm358.b)   -4.9593           (X_U2A.x_lm358.10)    1.9114              

(X_U2A.x_lm358.11)   -4.9998          (X_U2A.x_lm358.12)   -4.9213              

(X_U2A.x_lm358.13)    1.9114          (X_U2A.x_lm358.14)    1.8839              

(X_U2A.x_lm358.53)    3.5000          (X_U2A.x_lm358.54)   -4.1780              

(X_U2A.x_lm358.90)  -40.6800          (X_U2A.x_lm358.91)   40.0000              

(X_U2A.x_lm358.92)  -40.0000          (X_U2A.x_lm358.99)    0.0000          




    VOLTAGE SOURCE CURRENTS
    NAME         CURRENT

    V_V1        -1.117E-03
    V_V2        -1.116E-03
    V_V3         8.894E-08
    X_U2A.x_lm358.vb   1.491E-05
    X_U2A.x_lm358.vc   8.539E-12
    X_U2A.x_lm358.ve  -4.068E-02
    X_U2A.x_lm358.vlim  -4.068E-02
    X_U2A.x_lm358.vlp  -8.068E-11
    X_U2A.x_lm358.vln   1.377E-05

    TOTAL POWER DISSIPATION   4.41E-02  WATTS


**** 03/18/22 14:27:47 ******* PSpice Lite (March 2016) ******* ID# 10813 ****

 ** Profile: "SCHEMATIC1-bias_termometro1_3"  [ D:\Practicas\E_General\Termometro3-PSpiceFiles\SCHEMATIC1\bias_termometro1_3.sim ] 


 ****     TEMPERATURE-ADJUSTED VALUES      TEMPERATURE =   30.000 DEG C


******************************************************************************




 **** DIODE MODEL PARAMETERS

                   D1N4148    X_U2A.x_lm358.dy
                                             X_U2A.x_lm358.dx

         IS        3.435E-09      1.260E-15      1.260E-15  
         VJ        4.923E-01      9.973E-01      9.973E-01  
        CJO        4.022E-12      1.002E-11      0.000E+00  
         RS        5.664E-01      1.000E-03      1.000E+00  
        IKF        4.417E-02      0.000E+00      0.000E+00  
         BV        1.000E+02  


 **** BJT MODEL PARAMETERS

                   Q2N3904    X_U2A.x_lm358.qx

         BF        4.227E+02      1.667E+02  
        ISE        9.519E-15      0.000E+00  
        VJE        7.448E-01      7.448E-01  
        CJE        4.503E-12      0.000E+00  
         RE        0.000E+00      0.000E+00  
         RB        1.000E+01      0.000E+00  
         BR        7.482E-01      1.000E+00  
        ISC        0.000E+00      0.000E+00  
        VJC        7.448E-01      7.448E-01  
        CJC        3.647E-12      0.000E+00  
         RC        1.000E+00      0.000E+00  
        RBM        1.000E+01      0.000E+00  
         IS        1.061E-14      1.260E-15  
        ISS        0.000E+00      0.000E+00  
        VJS        7.448E-01      7.448E-01  
        CJS        0.000E+00      0.000E+00  
      GAMMA        1.000E-11      1.000E-11  
        RCO        0.000E+00      0.000E+00  
         VO        1.000E+01      1.000E+01  


**** 03/18/22 14:27:47 ******* PSpice Lite (March 2016) ******* ID# 10813 ****

 ** Profile: "SCHEMATIC1-bias_termometro1_3"  [ D:\Practicas\E_General\Termometro3-PSpiceFiles\SCHEMATIC1\bias_termometro1_3.sim ] 


 ****     SMALL SIGNAL BIAS SOLUTION       TEMPERATURE =   30.000 DEG C


******************************************************************************



 NODE   VOLTAGE     NODE   VOLTAGE     NODE   VOLTAGE     NODE   VOLTAGE


(  VCC)    5.0000  (  VSS)   -5.0000  (N00494)   -4.9905 (N00498)    1.2922     

(N00502)    1.2922 (N00806)    1.2020 (X_U2A.x_lm358.6)    1.2820               

(X_U2A.x_lm358.7)   -7.0205           (X_U2A.x_lm358.8)   -7.0205               

(X_U2A.x_lm358.9)    0.0000           (X_U2A.x_lm358.a)     .0406               

(X_U2A.x_lm358.b)   -4.9594           (X_U2A.x_lm358.10)    1.8314              

(X_U2A.x_lm358.11)   -4.9943          (X_U2A.x_lm358.12)   -4.9269              

(X_U2A.x_lm358.13)    1.8294          (X_U2A.x_lm358.14)    1.8058              

(X_U2A.x_lm358.53)    3.5000          (X_U2A.x_lm358.54)   -4.1780              

(X_U2A.x_lm358.90)  -40.5990          (X_U2A.x_lm358.91)   40.0000              

(X_U2A.x_lm358.92)  -40.0000          (X_U2A.x_lm358.99)    0.0000          




    VOLTAGE SOURCE CURRENTS
    NAME         CURRENT

    V_V1        -1.117E-03
    V_V2        -1.116E-03
    V_V3         8.270E-08
    X_U2A.x_lm358.vb   1.282E-05
    X_U2A.x_lm358.vc   8.492E-12
    X_U2A.x_lm358.ve  -4.060E-02
    X_U2A.x_lm358.vlim  -4.060E-02
    X_U2A.x_lm358.vlp  -8.060E-11
    X_U2A.x_lm358.vln   1.156E-05

    TOTAL POWER DISSIPATION   4.41E-02  WATTS



          JOB CONCLUDED

**** 03/18/22 14:27:47 ******* PSpice Lite (March 2016) ******* ID# 10813 ****

 ** Profile: "SCHEMATIC1-bias_termometro1_3"  [ D:\Practicas\E_General\Termometro3-PSpiceFiles\SCHEMATIC1\bias_termometro1_3.sim ] 


 ****     JOB STATISTICS SUMMARY


******************************************************************************



  Total job time (using Solver 1)   =         .03
