
**** 03/18/22 20:46:31 ******* PSpice Lite (March 2016) ******* ID# 10813 ****

 ** Profile: "SCHEMATIC1-bpd"  [ D:\Practicas\E_General\Termometro_Final-PSpiceFiles\SCHEMATIC1\bpd.sim ] 


 ****     CIRCUIT DESCRIPTION


******************************************************************************




** Creating circuit file "bpd.cir" 
** WARNING: THIS AUTOMATICALLY GENERATED FILE MAY BE OVERWRITTEN BY SUBSEQUENT SIMULATIONS

*Libraries: 
* Profile Libraries :
* Local Libraries :
* From [PSPICE NETLIST] section of C:\SPB_DATA\cdssetup\OrCAD_PSpice\17.2.0\PSpice.ini file:
.lib "nomd.lib" 

*Analysis directives: 
.OPTIONS ADVCONV
.PROBE64 V(alias(*)) I(alias(*)) W(alias(*)) D(alias(*)) NOISE(alias(*)) 
.INC "..\SCHEMATIC1.net" 



**** INCLUDING SCHEMATIC1.net ****
* source TERMOMETRO_FINAL
V_V2         VS- 0 5
R_R1         N05022 VC+  180K TC=0,0 
V_V1         VC+ 0 5
X_D1         0 N05026 LM385 
R_R2         N05026 N05022  8.2K TC=0,0 
D_D2         N05223 0 D1N4148 
D_D3         0 N05247 D1N4148 
V_V3         N05223 0 5
V_V4         N05247 0 5

**** RESUMING bpd.cir ****
.END

**** 03/18/22 20:46:31 ******* PSpice Lite (March 2016) ******* ID# 10813 ****

 ** Profile: "SCHEMATIC1-bpd"  [ D:\Practicas\E_General\Termometro_Final-PSpiceFiles\SCHEMATIC1\bpd.sim ] 


 ****     Diode MODEL PARAMETERS


******************************************************************************




               D1N4148         X_D1.DF         
          IS    2.682000E-09   39.120000E-15 
           N    1.836            .9983       
         ISR    1.565000E-09                 
         IKF     .04417                      
          BV  100                            
         IBV  100.000000E-06                 
          RS     .5664         12.18         
          TT   11.540000E-09                 
         CJO    4.000000E-12                 
          VJ     .5                          
           M     .3333                       


**** 03/18/22 20:46:31 ******* PSpice Lite (March 2016) ******* ID# 10813 ****

 ** Profile: "SCHEMATIC1-bpd"  [ D:\Practicas\E_General\Termometro_Final-PSpiceFiles\SCHEMATIC1\bpd.sim ] 


 ****     SMALL SIGNAL BIAS SOLUTION       TEMPERATURE =   27.000 DEG C


******************************************************************************



 NODE   VOLTAGE     NODE   VOLTAGE     NODE   VOLTAGE     NODE   VOLTAGE


(  VC+)    5.0000  (  VS-)    5.0000  (N05022)    1.3989 (N05026)    1.2348     

(N05223)    5.0000 (N05247)    5.0000 (X_D1.1) 1.597E-06 (X_D1.2)    -.0022     

(X_D1.3)    1.2370 




    VOLTAGE SOURCE CURRENTS
    NAME         CURRENT

    V_V2         0.000E+00
    V_V1        -2.001E-05
    V_V3        -6.832E+00
    V_V4        -6.162E-09

    TOTAL POWER DISSIPATION   3.42E+01  WATTS



          JOB CONCLUDED

**** 03/18/22 20:46:31 ******* PSpice Lite (March 2016) ******* ID# 10813 ****

 ** Profile: "SCHEMATIC1-bpd"  [ D:\Practicas\E_General\Termometro_Final-PSpiceFiles\SCHEMATIC1\bpd.sim ] 


 ****     JOB STATISTICS SUMMARY


******************************************************************************



  Total job time (using Solver 1)   =         .02
