
**** 03/18/22 07:39:49 ******* PSpice Lite (March 2016) ******* ID# 10813 ****

 ** Profile: "SCHEMATIC1-bandgap"  [ D:\Practicas\E_General\termometro_0-PSpiceFiles\SCHEMATIC1\bandgap.sim ] 


 ****     CIRCUIT DESCRIPTION


******************************************************************************




** Creating circuit file "bandgap.cir" 
** WARNING: THIS AUTOMATICALLY GENERATED FILE MAY BE OVERWRITTEN BY SUBSEQUENT SIMULATIONS

*Libraries: 
* Profile Libraries :
* Local Libraries :
* From [PSPICE NETLIST] section of C:\SPB_DATA\cdssetup\OrCAD_PSpice\17.2.0\PSpice.ini file:
.lib "nomd.lib" 

*Analysis directives: 
.OPTIONS ADVCONV
.PROBE64 V(alias(*)) I(alias(*)) W(alias(*)) D(alias(*)) NOISE(alias(*)) 
.INC "..\SCHEMATIC1.net" 



**** INCLUDING SCHEMATIC1.net ****
* source TERMOMETRO_0
X_U1         N00280 0 AD1580/AD
R_R1         N00280 V+  200 TC=0,0 
V_V1         V+ 0 5
V_V2         V- 0 5

**** RESUMING bandgap.cir ****
.END

**** 03/18/22 07:39:49 ******* PSpice Lite (March 2016) ******* ID# 10813 ****

 ** Profile: "SCHEMATIC1-bandgap"  [ D:\Practicas\E_General\termometro_0-PSpiceFiles\SCHEMATIC1\bandgap.sim ] 


 ****     BJT MODEL PARAMETERS


******************************************************************************




               X_U1.qn1        X_U1.qn2        X_U1.qp1        
               NPN             NPN             PNP             
       LEVEL    1               1               1            
          IS  100.000000E-18  100.000000E-18  100.000000E-18 
          BF  100             100              50.000000E+03 
          NF    1               1               1            
         VAF  100             100             100            
          BR    1               1               1            
          NR    1               1               1            
         ISS    0               0               0            
          RE    0               0               0            
          RC    0               0               0            
         CJE    0               0               0            
         VJE     .75             .75             .75         
         CJC    0               0               0            
         VJC     .75             .75             .75         
         MJC     .33             .33             .33         
        XCJC    1               1               1            
         CJS    0               0               0            
         VJS     .75             .75             .75         
          KF    0               0               0            
          AF    1               1               1            
          CN    2.42            2.42            2.2          
           D     .87             .87             .52         


**** 03/18/22 07:39:49 ******* PSpice Lite (March 2016) ******* ID# 10813 ****

 ** Profile: "SCHEMATIC1-bandgap"  [ D:\Practicas\E_General\termometro_0-PSpiceFiles\SCHEMATIC1\bandgap.sim ] 


 ****     SMALL SIGNAL BIAS SOLUTION       TEMPERATURE =   27.000 DEG C


******************************************************************************



 NODE   VOLTAGE     NODE   VOLTAGE     NODE   VOLTAGE     NODE   VOLTAGE


(   V+)    5.0000  (   V-)    5.0000  (N00280)    1.2275 (X_U1.2)     .9882     

(X_U1.3)     .6659 (X_U1.4)     .6678 (X_U1.5)     .6244 (X_U1.6)     .3774     

(X_U1.7)     .6244 




    VOLTAGE SOURCE CURRENTS
    NAME         CURRENT

    V_V1        -1.886E-02
    V_V2         0.000E+00
    X_U1.vic     1.517E-05

    TOTAL POWER DISSIPATION   9.43E-02  WATTS



          JOB CONCLUDED

**** 03/18/22 07:39:49 ******* PSpice Lite (March 2016) ******* ID# 10813 ****

 ** Profile: "SCHEMATIC1-bandgap"  [ D:\Practicas\E_General\termometro_0-PSpiceFiles\SCHEMATIC1\bandgap.sim ] 


 ****     JOB STATISTICS SUMMARY


******************************************************************************



  Total job time (using Solver 1)   =         .03
