
**** 03/09/22 16:29:04 ******* PSpice Lite (March 2016) ******* ID# 10813 ****

 ** Profile: "SCHEMATIC1-bp2"  [ d:\practicas\e_general\termometro2-PSpiceFiles\SCHEMATIC1\bp2.sim ] 


 ****     CIRCUIT DESCRIPTION


******************************************************************************




** Creating circuit file "bp2.cir" 
** WARNING: THIS AUTOMATICALLY GENERATED FILE MAY BE OVERWRITTEN BY SUBSEQUENT SIMULATIONS

*Libraries: 
* Profile Libraries :
* Local Libraries :
* From [PSPICE NETLIST] section of C:\SPB_DATA\cdssetup\OrCAD_PSpice\17.2.0\PSpice.ini file:
.lib "nomd.lib" 

*Analysis directives: 
.TRAN  0 1000ns 0 
.OPTIONS ADVCONV
.PROBE64 V(alias(*)) I(alias(*)) W(alias(*)) D(alias(*)) NOISE(alias(*)) 
.INC "..\SCHEMATIC1.net" 



**** INCLUDING SCHEMATIC1.net ****
* source TERMOMETRO2
D_D2         N02375 0 D1N4148 
R_R2         N02375 N02451  1k TC=0,0 
Q_Q2         VCC N02417 N02451 Q2N3904
R_R3         N02375 1  1k TC=0,0 
X_U1B         N02890 N02375 VCC VSS N02417 LM358
D_D3         N02375 0 D1N4148 
V_V4         N02890 0 700mV
Q_Q3         VCC N02417 1 Q2N3904
V_V5         VCC 0 5
V_V6         VSS 0 5
X_U2         1 N02451 VCC VSS N03901 LM741

**** RESUMING bp2.cir ****
.END

**** 03/09/22 16:29:04 ******* PSpice Lite (March 2016) ******* ID# 10813 ****

 ** Profile: "SCHEMATIC1-bp2"  [ d:\practicas\e_general\termometro2-PSpiceFiles\SCHEMATIC1\bp2.sim ] 


 ****     Diode MODEL PARAMETERS


******************************************************************************




               D1N4148         X_U1B.x_lm358.dx 
          IS    2.682000E-09  800.000000E-18 
           N    1.836                        
         ISR    1.565000E-09                 
         IKF     .04417                      
          BV  100                            
         IBV  100.000000E-06                 
          RS     .5664          1            
          TT   11.540000E-09                 
         CJO    4.000000E-12                 
          VJ     .5                          
           M     .3333                       


               X_U1B.x_lm358.dy                X_U2.x_lm741.dx X_U2.x_lm741.dy 
          IS  800.000000E-18                  800.000000E-18  800.000000E-18 
          RS    1.000000E-03                    1               1.000000E-03 
         CJO   10.000000E-12                                   10.000000E-12 


**** 03/09/22 16:29:04 ******* PSpice Lite (March 2016) ******* ID# 10813 ****

 ** Profile: "SCHEMATIC1-bp2"  [ d:\practicas\e_general\termometro2-PSpiceFiles\SCHEMATIC1\bp2.sim ] 


 ****     BJT MODEL PARAMETERS


******************************************************************************




               Q2N3904         X_U1B.x_lm358.qx                X_U2.x_lm741.qx 
               NPN             PNP                             NPN             
       LEVEL    1               1                               1            
          IS    6.734000E-15  800.000000E-18                  800.000000E-18 
          BF  416.4           166.7                            93.75         
          NF    1               1                               1            
         VAF   74.03                         
         IKF     .06678                      
         ISE    6.734000E-15                 
          NE    1.259                        
          BR     .7371          1                               1            
          NR    1               1                               1            
         ISS    0               0                               0            
          RB   10                            
          RE    0               0                               0            
          RC    1               0                               0            
         CJE    4.493000E-12    0                               0            
         VJE     .75             .75                             .75         
         MJE     .2593                       
         CJC    3.638000E-12    0                               0            
         VJC     .75             .75                             .75         
         MJC     .3085           .33                             .33         
        XCJC    1               1                               1            
         CJS    0               0                               0            
         VJS     .75             .75                             .75         
          TF  301.200000E-12                 
         XTF    2                            
         VTF    4                            
         ITF     .4                          
          TR  239.500000E-09                 
         XTB    1.5                          
          KF    0               0                               0            
          AF    1               1                               1            
          CN    2.42            2.2                             2.42         
           D     .87             .52                             .87         


**** 03/09/22 16:29:04 ******* PSpice Lite (March 2016) ******* ID# 10813 ****

 ** Profile: "SCHEMATIC1-bp2"  [ d:\practicas\e_general\termometro2-PSpiceFiles\SCHEMATIC1\bp2.sim ] 


 ****     Current Controlled Switch MODEL PARAMETERS


******************************************************************************




               X_U1B.x_lm358.sw2 
         RON    1            
        ROFF   10.000000E+06 
         ION    0            
        IOFF   -1.000000E-06 


               X_U1B.x_lm358.sw1 
         RON    1            
        ROFF   10.000000E+06 
         ION   -1.000000E-06 
        IOFF    0            


               X_U1B.x_lm358.sw3 
         RON    1            
        ROFF   10.000000E+06 
         ION   -1.000000E-06 
        IOFF    0            


               X_U1B.x_lm358.sw4 
         RON    1            
        ROFF   10.000000E+06 
         ION    0            
        IOFF   -1.000000E-06 


**** 03/09/22 16:29:04 ******* PSpice Lite (March 2016) ******* ID# 10813 ****

 ** Profile: "SCHEMATIC1-bp2"  [ d:\practicas\e_general\termometro2-PSpiceFiles\SCHEMATIC1\bp2.sim ] 


 ****     INITIAL TRANSIENT SOLUTION       TEMPERATURE =   27.000 DEG C


******************************************************************************



 NODE   VOLTAGE     NODE   VOLTAGE     NODE   VOLTAGE     NODE   VOLTAGE


(    1)    3.9636  (  VCC)    5.0000  (  VSS)    5.0000  (N02375)     .6684     

(N02417)    4.6610 (N02451)    3.9636 (N02890)     .7000 (N03901)    5.0000     

(X_U2.x_lm741.6)-979.9E-06            (X_U2.x_lm741.7)    5.0052                

(X_U2.x_lm741.8)    5.0052            (X_U2.x_lm741.9)    0.0000                

(X_U1B.x_lm358.6)     .5578           (X_U1B.x_lm358.7)    2.6321               

(X_U1B.x_lm358.8)    2.6321           (X_U1B.x_lm358.9)    0.0000               

(X_U1B.x_lm358.a)     .0406           (X_U1B.x_lm358.b)    5.0406               

(X_U2.x_lm741.10)    3.3562           (X_U2.x_lm741.11)    4.9605               

(X_U2.x_lm741.12)    4.9605           (X_U2.x_lm741.13)    3.3700               

(X_U2.x_lm741.14)    3.3700           (X_U2.x_lm741.53)    4.0000               

(X_U2.x_lm741.54)    6.0000           (X_U2.x_lm741.90)     .1038               

(X_U2.x_lm741.91)   40.0000           (X_U2.x_lm741.92)  -40.0000               

(X_U2.x_lm741.99)    5.0000           (X_U1B.x_lm358.10)    1.4091              

(X_U1B.x_lm358.11)    1.3794          (X_U1B.x_lm358.12)    1.4102              

(X_U1B.x_lm358.13)    1.3799          (X_U1B.x_lm358.14)    1.4100              

(X_U1B.x_lm358.53)    3.5000          (X_U1B.x_lm358.54)    5.8220              

(X_U1B.x_lm358.90)  -40.5770          (X_U1B.x_lm358.91)   40.0000              

(X_U1B.x_lm358.92)  -40.0000          (X_U1B.x_lm358.99)    5.0000          




    VOLTAGE SOURCE CURRENTS
    NAME         CURRENT

    V_V4         6.762E-04
    V_V5         1.565E+02
    V_V6        -1.565E+02
    X_U1B.x_lm358.vb   5.578E-06
    X_U1B.x_lm358.vc  -1.350E+02
    X_U1B.x_lm358.ve  -1.351E+02
    X_U1B.x_lm358.vlim  -4.058E-02
    X_U1B.x_lm358.vlp  -8.058E-11
    X_U1B.x_lm358.vln   3.880E-06
    X_U2.x_lm741.vb  -9.799E-09
    X_U2.x_lm741.vc  -2.153E+01
    X_U2.x_lm741.ve  -2.153E+01
    X_U2.x_lm741.vlim   1.038E-04
    X_U2.x_lm741.vlp  -3.990E-11
    X_U2.x_lm741.vln  -4.011E-11

    TOTAL POWER DISSIPATION   3.57E+02  WATTS



          JOB CONCLUDED

**** 03/09/22 16:29:04 ******* PSpice Lite (March 2016) ******* ID# 10813 ****

 ** Profile: "SCHEMATIC1-bp2"  [ d:\practicas\e_general\termometro2-PSpiceFiles\SCHEMATIC1\bp2.sim ] 


 ****     JOB STATISTICS SUMMARY


******************************************************************************



  Total job time (using Solver 1)   =         .03
