
**** 03/19/22 18:17:03 ******* PSpice Lite (March 2016) ******* ID# 10813 ****

 ** Profile: "SCHEMATIC1-bias_t1_1"  [ D:\Practicas\E_General\t3-PSpiceFiles\SCHEMATIC1\bias_t1_1.sim ] 


 ****     CIRCUIT DESCRIPTION


******************************************************************************




** Creating circuit file "bias_t1_1.cir" 
** WARNING: THIS AUTOMATICALLY GENERATED FILE MAY BE OVERWRITTEN BY SUBSEQUENT SIMULATIONS

*Libraries: 
* Profile Libraries :
* Local Libraries :
* From [PSPICE NETLIST] section of C:\SPB_DATA\cdssetup\OrCAD_PSpice\17.2.0\PSpice.ini file:
.lib "nomd.lib" 

*Analysis directives: 
.TEMP -70
.OPTIONS ADVCONV
.PROBE64 V(alias(*)) I(alias(*)) W(alias(*)) D(alias(*)) NOISE(alias(*)) 
.INC "..\SCHEMATIC1.net" 



**** INCLUDING SCHEMATIC1.net ****
* source T3
R_R1         N00067 VC+  188.2k TC=0,0 
X_D1         0 N00067 LM385 
X_U1A         N00067 N00233 VC+ VS- N00392 LM358
D_D2         N00439 N00233 D1N4148 
R_R2         0 N00233  1k TC=0,0 
R_R3         0 N01282  1k TC=0,0 
Q_Q1         VC+ N00392 N00439 Q2N3904
Q_Q2         VC+ N00392 N00456 Q2N3904
V_V1         VC+ 0 5
V_V2         0 VS- 5
X_U1B         N00937 N00933 VC+ VS- N00987 LM358
R_R4         N00439 N00937  1k TC=0,0 
R_R5         N00456 N00933  1k TC=0,0 
R_R6         N00937 0  1k TC=0,0 
R_R7         N00933 N00987  1k TC=0,0 
V_V3         N00456 N01282 0.797

**** RESUMING bias_t1_1.cir ****
.END

**** 03/19/22 18:17:03 ******* PSpice Lite (March 2016) ******* ID# 10813 ****

 ** Profile: "SCHEMATIC1-bias_t1_1"  [ D:\Practicas\E_General\t3-PSpiceFiles\SCHEMATIC1\bias_t1_1.sim ] 


 ****     Diode MODEL PARAMETERS


******************************************************************************




               D1N4148         X_D1.DF         
          IS    2.682000E-09   39.120000E-15 
           N    1.836            .9983       
         ISR    1.565000E-09                 
         IKF     .04417                      
          BV  100                            
         IBV  100.000000E-06                 
          RS     .5664         12.18         
          TT   11.540000E-09                 
         CJO    4.000000E-12                 
          VJ     .5                          
           M     .3333                       


               X_U1A.x_lm358.dx 
          IS  800.000000E-18 
          RS    1            


               X_U1A.x_lm358.dy 
          IS  800.000000E-18 
          RS    1.000000E-03 
         CJO   10.000000E-12 


               X_U1B.x_lm358.dx 
          IS  800.000000E-18 
          RS    1            


               X_U1B.x_lm358.dy 
          IS  800.000000E-18 
          RS    1.000000E-03 
         CJO   10.000000E-12 


**** 03/19/22 18:17:03 ******* PSpice Lite (March 2016) ******* ID# 10813 ****

 ** Profile: "SCHEMATIC1-bias_t1_1"  [ D:\Practicas\E_General\t3-PSpiceFiles\SCHEMATIC1\bias_t1_1.sim ] 


 ****     BJT MODEL PARAMETERS


******************************************************************************




               Q2N3904         X_U1A.x_lm358.qx 
               NPN             PNP             
       LEVEL    1               1            
          IS    6.734000E-15  800.000000E-18 
          BF  416.4           166.7          
          NF    1               1            
         VAF   74.03                         
         IKF     .06678                      
         ISE    6.734000E-15                 
          NE    1.259                        
          BR     .7371          1            
          NR    1               1            
         ISS    0               0            
          RB   10                            
          RE    0               0            
          RC    1               0            
         CJE    4.493000E-12    0            
         VJE     .75             .75         
         MJE     .2593                       
         CJC    3.638000E-12    0            
         VJC     .75             .75         
         MJC     .3085           .33         
        XCJC    1               1            
         CJS    0               0            
         VJS     .75             .75         
          TF  301.200000E-12                 
         XTF    2                            
         VTF    4                            
         ITF     .4                          
          TR  239.500000E-09                 
         XTB    1.5                          
          KF    0               0            
          AF    1               1            
          CN    2.42            2.2          
           D     .87             .52         


               X_U1B.x_lm358.qx 
               PNP             
       LEVEL    1            
          IS  800.000000E-18 
          BF  166.7          
          NF    1            
          BR    1            
          NR    1            
         ISS    0            
          RE    0            
          RC    0            
         CJE    0            
         VJE     .75         
         CJC    0            
         VJC     .75         
         MJC     .33         
        XCJC    1            
         CJS    0            
         VJS     .75         
          KF    0            
          AF    1            
          CN    2.2          
           D     .52         


**** 03/19/22 18:17:03 ******* PSpice Lite (March 2016) ******* ID# 10813 ****

 ** Profile: "SCHEMATIC1-bias_t1_1"  [ D:\Practicas\E_General\t3-PSpiceFiles\SCHEMATIC1\bias_t1_1.sim ] 


 ****     Current Controlled Switch MODEL PARAMETERS


******************************************************************************




               X_U1A.x_lm358.sw2 
         RON    1            
        ROFF   10.000000E+06 
         ION    0            
        IOFF   -1.000000E-06 


               X_U1A.x_lm358.sw1 
         RON    1            
        ROFF   10.000000E+06 
         ION   -1.000000E-06 
        IOFF    0            


               X_U1A.x_lm358.sw3 
         RON    1            
        ROFF   10.000000E+06 
         ION   -1.000000E-06 
        IOFF    0            


               X_U1A.x_lm358.sw4 
         RON    1            
        ROFF   10.000000E+06 
         ION    0            
        IOFF   -1.000000E-06 


               X_U1B.x_lm358.sw2 
         RON    1            
        ROFF   10.000000E+06 
         ION    0            
        IOFF   -1.000000E-06 


               X_U1B.x_lm358.sw1 
         RON    1            
        ROFF   10.000000E+06 
         ION   -1.000000E-06 
        IOFF    0            


               X_U1B.x_lm358.sw3 
         RON    1            
        ROFF   10.000000E+06 
         ION   -1.000000E-06 
        IOFF    0            


               X_U1B.x_lm358.sw4 
         RON    1            
        ROFF   10.000000E+06 
         ION    0            
        IOFF   -1.000000E-06 


**** 03/19/22 18:17:03 ******* PSpice Lite (March 2016) ******* ID# 10813 ****

 ** Profile: "SCHEMATIC1-bias_t1_1"  [ D:\Practicas\E_General\t3-PSpiceFiles\SCHEMATIC1\bias_t1_1.sim ] 


 ****     TEMPERATURE-ADJUSTED VALUES      TEMPERATURE =  -70.000 DEG C


******************************************************************************




 **** DIODE MODEL PARAMETERS

                   D1N4148        X_D1.DF    X_U1A.x_lm358.dy

         IS        2.015E-14      1.474E-23      3.127E-25  
         VJ        7.421E-01      1.081E+00      1.081E+00  
        CJO        3.303E-12      0.000E+00      9.403E-12  
         RS        5.664E-01      1.218E+01      1.000E-03  
        IKF        4.417E-02      0.000E+00      0.000E+00  
         BV        1.000E+02  

               X_U1A.x_lm358.dx
                              X_U1B.x_lm358.dy
                                             X_U1B.x_lm358.dx

         IS        3.127E-25      3.127E-25      3.127E-25  
         VJ        1.081E+00      1.081E+00      1.081E+00  
        CJO        0.000E+00      9.403E-12      0.000E+00  
         RS        1.000E+00      1.000E-03      1.000E+00  
        IKF        0.000E+00      0.000E+00      0.000E+00  
         BV                   


 **** BJT MODEL PARAMETERS

                   Q2N3904    X_U1A.x_lm358.qx
                                             X_U1B.x_lm358.qx

         BF        2.319E+02      1.667E+02      1.667E+02  
        ISE        4.073E-22      0.000E+00      0.000E+00  
        VJE        9.113E-01      9.113E-01      9.113E-01  
        CJE        4.197E-12      0.000E+00      0.000E+00  
         RE        0.000E+00      0.000E+00      0.000E+00  
         RB        1.000E+01      0.000E+00      0.000E+00  
         BR        4.104E-01      1.000E+00      1.000E+00  
        ISC        0.000E+00      0.000E+00      0.000E+00  
        VJC        9.113E-01      9.113E-01      9.113E-01  
        CJC        3.353E-12      0.000E+00      0.000E+00  
         RC        1.000E+00      0.000E+00      0.000E+00  
        RBM        1.000E+01      0.000E+00      0.000E+00  
         IS        2.632E-24      3.127E-25      3.127E-25  
        ISS        0.000E+00      0.000E+00      0.000E+00  
        VJS        9.113E-01      9.113E-01      9.113E-01  
        CJS        0.000E+00      0.000E+00      0.000E+00  
      GAMMA        1.000E-11      1.000E-11      1.000E-11  
        RCO        0.000E+00      0.000E+00      0.000E+00  
         VO        1.000E+01      1.000E+01      1.000E+01  


 **** RESISTORS

                X_D1.RBV < >                                

          R        1.233E+03  



**** 03/19/22 18:17:03 ******* PSpice Lite (March 2016) ******* ID# 10813 ****

 ** Profile: "SCHEMATIC1-bias_t1_1"  [ D:\Practicas\E_General\t3-PSpiceFiles\SCHEMATIC1\bias_t1_1.sim ] 


 ****     SMALL SIGNAL BIAS SOLUTION       TEMPERATURE =  -70.000 DEG C


******************************************************************************



 NODE   VOLTAGE     NODE   VOLTAGE     NODE   VOLTAGE     NODE   VOLTAGE


(  VC+)    5.0000  (  VS-)   -5.0000  (N00067)    1.2306 (N00233)    1.2301     

(N00392)    2.8703 (N00439)    2.0265 (N00456)    2.0265 (N00933)    1.0128     

(N00937)    1.0133 (N00987)-908.1E-06 (N01282)    1.2295 (X_D1.1) 1.606E-06     

(X_D1.2)    -.0022 (X_D1.3)    1.2328 (X_U1A.x_lm358.6)-541.8E-06               

(X_U1A.x_lm358.7)    2.8730           (X_U1A.x_lm358.8)    2.8730               

(X_U1A.x_lm358.9)    0.0000           (X_U1A.x_lm358.a)    4.9999               

(X_U1A.x_lm358.b)-53.79E-06           (X_U1B.x_lm358.6) 14.69E-06               

(X_U1B.x_lm358.7)    -.0516           (X_U1B.x_lm358.8)    -.0516               

(X_U1B.x_lm358.9)    0.0000           (X_U1B.x_lm358.a)     .0010               

(X_U1B.x_lm358.b)   -4.9990           (X_U1A.x_lm358.10)    2.0251              

(X_U1A.x_lm358.11)   -4.9603          (X_U1A.x_lm358.12)   -4.9610              

(X_U1A.x_lm358.13)    2.0112          (X_U1A.x_lm358.14)    2.0115              

(X_U1A.x_lm358.53)    3.5000          (X_U1A.x_lm358.54)   -4.1780              

(X_U1A.x_lm358.90)     .0533          (X_U1A.x_lm358.91)   40.0000              

(X_U1A.x_lm358.92)  -40.0000          (X_U1A.x_lm358.99)    0.0000              

(X_U1B.x_lm358.10)    1.8078          (X_U1B.x_lm358.11)   -4.9603              

(X_U1B.x_lm358.12)   -4.9609          (X_U1B.x_lm358.13)    1.7940              

(X_U1B.x_lm358.14)    1.7942          (X_U1B.x_lm358.53)    3.5000              

(X_U1B.x_lm358.54)   -4.1780          (X_U1B.x_lm358.90)   -1.0137              

(X_U1B.x_lm358.91)   40.0000          (X_U1B.x_lm358.92)  -40.0000              

(X_U1B.x_lm358.99)    0.0000          




    VOLTAGE SOURCE CURRENTS
    NAME         CURRENT

    V_V1        -6.740E-03
    V_V2        -3.247E-03
    V_V3         1.230E-03
    X_U1A.x_lm358.vb  -5.418E-09
    X_U1A.x_lm358.vc   6.297E-13
    X_U1A.x_lm358.ve   7.620E-12
    X_U1A.x_lm358.vlim   5.329E-05
    X_U1A.x_lm358.vlp  -3.995E-11
    X_U1A.x_lm358.vln  -4.006E-11
    X_U1B.x_lm358.vb   1.469E-10
    X_U1B.x_lm358.vc   3.501E-12
    X_U1B.x_lm358.ve   4.749E-12
    X_U1B.x_lm358.vlim  -1.014E-03
    X_U1B.x_lm358.vlp  -4.101E-11
    X_U1B.x_lm358.vln  -3.899E-11

    TOTAL POWER DISSIPATION   4.90E-02  WATTS



          JOB CONCLUDED

**** 03/19/22 18:17:03 ******* PSpice Lite (March 2016) ******* ID# 10813 ****

 ** Profile: "SCHEMATIC1-bias_t1_1"  [ D:\Practicas\E_General\t3-PSpiceFiles\SCHEMATIC1\bias_t1_1.sim ] 


 ****     JOB STATISTICS SUMMARY


******************************************************************************



  Total job time (using Solver 1)   =         .03
